time	V(c1)	V(n001)	V(in)	V(s)	V(c2)	V(n002)	Ic(Q1)	Ib(Q1)	Ie(Q1)	Ic(Q2)	Ib(Q2)	Ie(Q2)	I(D1)	I(L1)	I(L2)	I(R1)	I(R2)	I(V1)	I(V2)
0.000000000000000e+00	5.000000e+00	5.003333e-11	0.000000e+00	5.000000e+00	5.000000e+00	5.003333e-11	5.015247e-12	-5.003333e-12	-1.050000e-14	5.015247e-12	-5.003333e-12	-1.050000e-14	0.000000e+00	5.013394e-12	4.914629e-12	-5.003333e-12	-5.003333e-12	1.000667e-11	-9.928045e-12
1.006310719994777e-03	5.000000e+00	5.003094e-11	0.000000e+00	5.000000e+00	5.000000e+00	5.002479e-11	5.013027e-12	-5.003036e-12	-1.050043e-14	5.013027e-12	-5.002668e-12	-1.049950e-14	1.229172e-30	5.014575e-12	4.955245e-12	-5.003094e-12	-5.002479e-12	1.000570e-11	-1.000300e-11
2.030310719994708e-03	5.000000e+00	5.003461e-11	0.000000e+00	5.000000e+00	5.000000e+00	5.001288e-11	5.012287e-12	-5.003603e-12	-1.049989e-14	5.013027e-12	-5.001818e-12	-1.050063e-14	-9.867479e-14	5.014083e-12	4.908927e-12	-5.003461e-12	-5.001288e-12	1.000542e-11	-9.998471e-12
3.054310719994844e-03	5.000000e+00	5.003025e-11	0.000000e+00	5.000000e+00	5.000000e+00	5.007784e-11	5.013767e-12	-5.003033e-12	-1.049968e-14	5.018948e-12	-5.008011e-12	-1.050377e-14	1.973496e-13	5.014089e-12	5.200148e-12	-5.003025e-12	-5.007784e-12	1.001104e-11	-9.980954e-12
4.078310719994979e-03	5.000000e+00	5.003605e-11	0.000000e+00	5.000000e+00	5.000000e+00	5.006410e-11	5.014507e-12	-5.003661e-12	-1.049956e-14	5.016727e-12	-5.006425e-12	-1.050088e-14	9.867479e-14	5.014707e-12	5.120075e-12	-5.003605e-12	-5.006410e-12	1.001008e-11	-9.980722e-12
5.102310719995115e-03	5.000000e+00	5.003310e-11	0.000000e+00	5.000000e+00	5.000000e+00	5.003615e-11	5.012287e-12	-5.003311e-12	-1.050002e-14	5.014507e-12	-5.003760e-12	-1.049968e-14	2.225641e-42	5.013782e-12	5.009881e-12	-5.003310e-12	-5.003615e-12	1.000707e-11	-1.000239e-11
6.126310719995251e-03	5.000000e+00	5.003306e-11	0.000000e+00	5.000000e+00	5.000000e+00	5.003229e-11	5.012287e-12	-5.003303e-12	-1.049984e-14	5.013767e-12	-5.003640e-12	-1.050295e-14	2.078111e-26	5.013779e-12	5.020867e-12	-5.003307e-12	-5.003229e-12	1.000694e-11	-1.001921e-11
7.150310719995387e-03	5.000000e+00	5.003288e-11	0.000000e+00	5.000000e+00	5.000000e+00	5.005328e-11	5.012287e-12	-5.003284e-12	-1.049967e-14	5.017468e-12	-5.005949e-12	-1.049852e-14	1.315664e-13	5.013766e-12	5.152199e-12	-5.003289e-12	-5.005328e-12	1.000923e-11	-1.003571e-11
8.174310719995210e-03	5.000000e+00	5.003417e-11	0.000000e+00	5.000000e+00	5.000000e+00	5.004589e-11	5.013027e-12	-5.003638e-12	-1.049980e-14	5.014507e-12	-5.004547e-12	-1.049931e-14	9.867479e-14	5.014148e-12	5.071636e-12	-5.003417e-12	-5.004589e-12	1.000819e-11	-1.002536e-11
9.198310719994458e-03	5.000000e+00	5.003244e-11	0.000000e+00	5.000000e+00	5.000000e+00	5.006119e-11	5.013027e-12	-5.003335e-12	-1.050044e-14	5.016728e-12	-5.006244e-12	-1.049870e-14	1.315664e-13	5.013772e-12	5.102237e-12	-5.003243e-12	-5.006120e-12	1.000958e-11	-9.971070e-12
1.022231071999371e-02	5.000000e+00	5.003360e-11	0.000000e+00	5.000000e+00	5.000000e+00	5.006121e-11	5.012287e-12	-5.003357e-12	-1.049986e-14	5.016727e-12	-5.006874e-12	-1.050095e-14	1.315664e-13	5.013834e-12	5.145457e-12	-5.003360e-12	-5.006121e-12	1.001023e-11	-9.982830e-12
1.124631071999295e-02	5.000000e+00	5.003662e-11	0.000000e+00	5.000000e+00	5.000000e+00	5.003951e-11	5.013767e-12	-5.003804e-12	-1.050043e-14	5.013767e-12	-5.003395e-12	-1.049979e-14	1.492733e-29	5.014269e-12	4.974836e-12	-5.003662e-12	-5.003951e-12	1.000720e-11	-9.986048e-12
1.227031071999220e-02	5.000000e+00	5.003199e-11	0.000000e+00	5.000000e+00	5.000000e+00	5.002049e-11	5.013027e-12	-5.003197e-12	-1.049943e-14	5.011547e-12	-5.002106e-12	-1.050031e-14	-9.867479e-14	5.014265e-12	4.922460e-12	-5.003198e-12	-5.002049e-12	1.000530e-11	-9.997884e-12
1.329431071999145e-02	5.000000e+00	5.003296e-11	0.000000e+00	5.000000e+00	5.000000e+00	5.003384e-11	5.012287e-12	-5.003291e-12	-1.049970e-14	5.015247e-12	-5.004422e-12	-1.050211e-14	6.578319e-14	5.013772e-12	5.053706e-12	-5.003296e-12	-5.003384e-12	1.000771e-11	-1.001313e-11
1.431831071999070e-02	5.000000e+00	5.003358e-11	0.000000e+00	5.000000e+00	5.000000e+00	4.995394e-11	5.012287e-12	-5.003361e-12	-1.050000e-14	5.006366e-12	-4.995298e-12	-1.049889e-14	-3.618076e-13	5.013837e-12	4.591974e-12	-5.003358e-12	-4.995394e-12	9.998660e-12	-1.000622e-11
1.534231071998994e-02	5.000000e+00	5.003275e-11	0.000000e+00	5.000000e+00	5.000000e+00	5.004610e-11	5.014507e-12	-5.003212e-12	-1.050055e-14	5.015248e-12	-5.005087e-12	-1.050129e-14	-4.519700e-30	5.014750e-12	5.011925e-12	-5.003274e-12	-5.004610e-12	1.000830e-11	-9.939207e-12
1.636631071999048e-02	5.000000e+00	5.003383e-11	0.000000e+00	5.000000e+00	5.000000e+00	5.004667e-11	5.014507e-12	-5.003318e-12	-1.050066e-14	5.016727e-12	-5.004768e-12	-1.049939e-14	3.289160e-14	5.014854e-12	5.037931e-12	-5.003383e-12	-5.004667e-12	1.000809e-11	-9.981327e-12
1.739031071999150e-02	5.000000e+00	5.003240e-11	0.000000e+00	5.000000e+00	5.000000e+00	5.006215e-11	5.012287e-12	-5.003249e-12	-1.050005e-14	5.015988e-12	-5.006049e-12	-1.049961e-14	1.315664e-13	5.013720e-12	5.151745e-12	-5.003240e-12	-5.006215e-12	1.000930e-11	-1.003021e-11
1.841431071999253e-02	5.000000e+00	5.003168e-11	0.000000e+00	5.000000e+00	5.000000e+00	5.001706e-11	5.013027e-12	-5.003111e-12	-1.050071e-14	5.013027e-12	-5.002175e-12	-1.050058e-14	7.064733e-29	5.014642e-12	4.956711e-12	-5.003168e-12	-5.001706e-12	1.000529e-11	-1.002905e-11
1.943831071999355e-02	5.000000e+00	5.003648e-11	0.000000e+00	5.000000e+00	5.000000e+00	5.004608e-11	5.013767e-12	-5.003701e-12	-1.049943e-14	5.015247e-12	-5.004403e-12	-1.049946e-14	9.867479e-14	5.014753e-12	5.069816e-12	-5.003648e-12	-5.004608e-12	1.000810e-11	-1.003132e-11
2.046231071999458e-02	5.000000e+00	5.003206e-11	0.000000e+00	5.000000e+00	5.000000e+00	5.004052e-11	5.013027e-12	-5.003202e-12	-1.049925e-14	5.013767e-12	-5.003200e-12	-1.049836e-14	3.289160e-14	5.014277e-12	5.023892e-12	-5.003206e-12	-5.004051e-12	1.000640e-11	-1.004492e-11
2.148631071999560e-02	5.000000e+00	5.003394e-11	0.000000e+00	5.000000e+00	5.000000e+00	5.007272e-11	5.013027e-12	-5.003619e-12	-1.049984e-14	5.016727e-12	-5.006158e-12	-1.049962e-14	1.315664e-13	5.014126e-12	5.137507e-12	-5.003394e-12	-5.007272e-12	1.000978e-11	-1.001093e-11
2.251031071999662e-02	5.000000e+00	5.003055e-11	0.000000e+00	5.000000e+00	5.000000e+00	5.003134e-11	5.013767e-12	-5.003065e-12	-1.049999e-14	5.012287e-12	-5.002198e-12	-1.050000e-14	-3.289160e-14	5.014112e-12	4.977979e-12	-5.003055e-12	-5.003134e-12	1.000526e-11	-1.004867e-11
2.353431071999765e-02	5.000000e+00	5.003234e-11	0.000000e+00	5.000000e+00	5.000000e+00	5.003532e-11	5.013027e-12	-5.003230e-12	-1.049954e-14	5.014507e-12	-5.003440e-12	-1.050069e-14	3.289160e-14	5.014295e-12	5.024894e-12	-5.003234e-12	-5.003532e-12	1.000667e-11	-1.003384e-11
2.455831071999867e-02	5.000000e+00	5.003282e-11	0.000000e+00	5.000000e+00	5.000000e+00	5.003362e-11	5.012287e-12	-5.003276e-12	-1.049945e-14	5.013027e-12	-5.002082e-12	-1.049897e-14	-9.867479e-14	5.014345e-12	4.920146e-12	-5.003282e-12	-5.003362e-12	1.000536e-11	-9.996921e-12
2.558231071999970e-02	5.000000e+00	5.003652e-11	0.000000e+00	5.000000e+00	5.000000e+00	5.003427e-11	5.014507e-12	-5.003709e-12	-1.049973e-14	5.013767e-12	-5.002723e-12	-1.050028e-14	-3.289160e-14	5.014750e-12	4.950765e-12	-5.003652e-12	-5.003427e-12	1.000643e-11	-9.995929e-12
2.660631072000072e-02	5.000000e+00	5.003415e-11	0.000000e+00	5.000000e+00	5.000000e+00	5.002078e-11	5.013027e-12	-5.003479e-12	-1.049963e-14	5.011547e-12	-5.001473e-12	-1.049872e-14	-1.315664e-13	5.014520e-12	4.891660e-12	-5.003415e-12	-5.002077e-12	1.000495e-11	-9.998923e-12
2.763031072000174e-02	5.000000e+00	5.003133e-11	0.000000e+00	5.000000e+00	5.000000e+00	5.001277e-11	5.013027e-12	-5.003077e-12	-1.050063e-14	5.014507e-12	-5.002185e-12	-1.049884e-14	-9.867479e-14	5.014609e-12	4.889031e-12	-5.003133e-12	-5.001278e-12	1.000526e-11	-9.960910e-12
2.865431072000277e-02	5.000000e+00	5.003516e-11	0.000000e+00	5.000000e+00	5.000000e+00	5.003850e-11	5.012287e-12	-5.003664e-12	-1.050035e-14	5.013767e-12	-5.003858e-12	-1.049811e-14	3.289160e-14	5.014129e-12	5.038472e-12	-5.003515e-12	-5.003850e-12	1.000752e-11	-1.002656e-11
2.967831072000379e-02	5.000000e+00	5.003334e-11	0.000000e+00	5.000000e+00	5.000000e+00	5.006805e-11	5.014507e-12	-5.003268e-12	-1.050047e-14	5.017468e-12	-5.007492e-12	-1.049866e-14	2.302412e-13	5.014810e-12	5.190610e-12	-5.003333e-12	-5.006805e-12	1.001076e-11	-9.998259e-12
3.070231072000482e-02	5.000000e+00	5.003209e-11	0.000000e+00	5.000000e+00	5.000000e+00	5.002619e-11	5.012287e-12	-5.003293e-12	-1.050019e-14	5.013027e-12	-5.002843e-12	-1.050076e-14	-6.578319e-14	5.013735e-12	4.929362e-12	-5.003208e-12	-5.002619e-12	1.000614e-11	-9.967507e-12
3.172631072000584e-02	5.000000e+00	5.003451e-11	0.000000e+00	5.000000e+00	5.000000e+00	5.001143e-11	5.012287e-12	-5.003595e-12	-1.050000e-14	5.013767e-12	-5.002173e-12	-1.050041e-14	-9.867479e-14	5.014071e-12	4.889001e-12	-5.003451e-12	-5.001143e-12	1.000577e-11	-9.960852e-12
3.275031072000686e-02	5.000000e+00	5.003093e-11	0.000000e+00	5.000000e+00	5.000000e+00	5.003433e-11	5.013027e-12	-5.003036e-12	-1.050044e-14	5.013767e-12	-5.003623e-12	-1.050125e-14	3.289160e-14	5.014575e-12	4.991316e-12	-5.003093e-12	-5.003433e-12	1.000666e-11	-9.991371e-12
3.377431072000789e-02	5.000000e+00	5.003604e-11	0.000000e+00	5.000000e+00	5.000000e+00	5.005073e-11	5.014507e-12	-5.003661e-12	-1.049963e-14	5.014507e-12	-5.004455e-12	-1.050051e-14	3.289160e-14	5.014705e-12	5.037042e-12	-5.003604e-12	-5.005073e-12	1.000812e-11	-9.995835e-12
3.479831072000891e-02	5.000000e+00	5.003264e-11	0.000000e+00	5.000000e+00	5.000000e+00	4.989677e-11	5.014507e-12	-5.003203e-12	-1.050069e-14	4.998964e-12	-4.988444e-12	-1.049847e-14	-6.907236e-13	5.014736e-12	4.309906e-12	-5.003264e-12	-4.989677e-12	9.991646e-12	-1.006664e-11
3.582231072000994e-02	5.000000e+00	5.003016e-11	0.000000e+00	5.000000e+00	5.000000e+00	5.003068e-11	5.012287e-12	-5.003027e-12	-1.049987e-14	5.013767e-12	-5.003381e-12	-1.050369e-14	-3.144530e-25	5.014076e-12	5.011853e-12	-5.003016e-12	-5.003068e-12	1.000641e-11	-1.002338e-11
3.684631072001096e-02	5.000000e+00	5.003625e-11	0.000000e+00	5.000000e+00	5.000000e+00	5.002842e-11	5.014507e-12	-5.003687e-12	-1.050017e-14	5.013767e-12	-5.003067e-12	-1.050130e-14	-1.594549e-25	5.014712e-12	4.972466e-12	-5.003624e-12	-5.002842e-12	1.000675e-11	-1.000041e-11
3.787031072001198e-02	5.000000e+00	5.003103e-11	0.000000e+00	5.000000e+00	5.000000e+00	4.999768e-11	5.013027e-12	-5.003277e-12	-1.050034e-14	5.008586e-12	-4.998593e-12	-1.049929e-14	-2.302412e-13	5.013742e-12	4.739381e-12	-5.003103e-12	-4.999768e-12	1.000187e-11	-9.989384e-12
3.889431072001301e-02	5.000000e+00	5.003370e-11	0.000000e+00	5.000000e+00	5.000000e+00	4.993337e-11	5.012287e-12	-5.003457e-12	-1.050041e-14	5.004885e-12	-4.994666e-12	-1.049879e-14	-4.604823e-13	5.013897e-12	4.494362e-12	-5.003370e-12	-4.993337e-12	9.998123e-12	-9.940178e-12
3.991831072001403e-02	5.000000e+00	5.003361e-11	0.000000e+00	5.000000e+00	5.000000e+00	5.004678e-11	5.012287e-12	-5.003365e-12	-1.050004e-14	5.015988e-12	-5.004270e-12	-1.049827e-14	9.867479e-14	5.013839e-12	5.064688e-12	-5.003361e-12	-5.004679e-12	1.000763e-11	-1.003198e-11
4.094231072001506e-02	5.000000e+00	5.003306e-11	0.000000e+00	5.000000e+00	5.000000e+00	5.004976e-11	5.014507e-12	-5.003244e-12	-1.050064e-14	5.015248e-12	-5.003637e-12	-1.049871e-14	0.000000e+00	5.014779e-12	4.995770e-12	-5.003306e-12	-5.004975e-12	1.000688e-11	-9.995499e-12
4.196631072001608e-02	5.000000e+00	5.003402e-11	0.000000e+00	5.000000e+00	5.000000e+00	5.002935e-11	5.012287e-12	-5.003400e-12	-1.050001e-14	5.014507e-12	-5.004093e-12	-1.050047e-14	0.000000e+00	5.013872e-12	4.975876e-12	-5.003402e-12	-5.002935e-12	1.000749e-11	-9.951887e-12
4.299031072001711e-02	5.000000e+00	5.003381e-11	0.000000e+00	5.000000e+00	5.000000e+00	5.002788e-11	5.013027e-12	-5.003603e-12	-1.049974e-14	5.013767e-12	-5.004039e-12	-1.050109e-14	-2.327100e-28	5.014114e-12	4.969799e-12	-5.003381e-12	-5.002789e-12	1.000764e-11	-9.948703e-12
4.401431072001813e-02	5.000000e+00	5.003089e-11	0.000000e+00	5.000000e+00	5.000000e+00	5.004493e-11	5.013767e-12	-5.003175e-12	-1.050003e-14	5.015988e-12	-5.004704e-12	-1.050028e-14	9.867479e-14	5.013669e-12	5.076331e-12	-5.003088e-12	-5.004492e-12	1.000788e-11	-1.002168e-11
4.503831072001915e-02	5.000000e+00	5.003306e-11	0.000000e+00	5.000000e+00	5.000000e+00	5.003448e-11	5.012287e-12	-5.003307e-12	-1.049999e-14	5.014507e-12	-5.003116e-12	-1.050092e-14	3.289160e-14	5.013779e-12	4.995687e-12	-5.003306e-12	-5.003448e-12	1.000642e-11	-1.002026e-11
4.606231072002018e-02	5.000000e+00	5.003100e-11	0.000000e+00	5.000000e+00	5.000000e+00	5.002861e-11	5.013767e-12	-5.003108e-12	-1.049991e-14	5.014507e-12	-5.003642e-12	-1.050101e-14	8.474432e-29	5.014158e-12	4.942945e-12	-5.003100e-12	-5.002861e-12	1.000675e-11	-9.941659e-12
4.708631072002120e-02	5.000000e+00	5.003375e-11	0.000000e+00	5.000000e+00	5.000000e+00	5.003759e-11	5.014507e-12	-5.003310e-12	-1.050067e-14	5.015988e-12	-5.005314e-12	-1.050167e-14	3.289160e-14	5.014846e-12	5.056378e-12	-5.003375e-12	-5.003759e-12	1.000862e-11	-9.972431e-12
4.811031072002223e-02	5.000000e+00	5.003538e-11	0.000000e+00	5.000000e+00	5.000000e+00	5.005418e-11	5.012287e-12	-5.003685e-12	-1.050039e-14	5.015247e-12	-5.005228e-12	-1.049919e-14	-3.453561e-28	5.014150e-12	5.034917e-12	-5.003538e-12	-5.005418e-12	1.000891e-11	-9.954728e-12
4.913431072002325e-02	5.000000e+00	5.003310e-11	0.000000e+00	5.000000e+00	5.000000e+00	5.000727e-11	5.012287e-12	-5.003398e-12	-1.050031e-14	5.013767e-12	-5.002255e-12	-1.050015e-14	-1.315664e-13	5.013841e-12	4.887552e-12	-5.003310e-12	-5.000727e-12	1.000565e-11	-9.955097e-12
5.015831072002427e-02	5.000000e+00	5.003396e-11	0.000000e+00	5.000000e+00	5.000000e+00	5.003345e-11	5.014507e-12	-5.003330e-12	-1.050064e-14	5.014507e-12	-5.003034e-12	-1.049919e-14	-3.289160e-14	5.014867e-12	4.947892e-12	-5.003396e-12	-5.003345e-12	1.000636e-11	-9.977729e-12
5.118231072002530e-02	5.000000e+00	5.003684e-11	0.000000e+00	5.000000e+00	5.000000e+00	5.001936e-11	5.013767e-12	-5.003743e-12	-1.050002e-14	5.011547e-12	-5.001335e-12	-1.050029e-14	-9.867479e-14	5.014775e-12	4.917439e-12	-5.003685e-12	-5.001936e-12	1.000508e-11	-1.003175e-11
5.220631072002632e-02	5.000000e+00	5.003644e-11	0.000000e+00	5.000000e+00	5.000000e+00	5.001810e-11	5.013767e-12	-5.003787e-12	-1.050045e-14	5.011547e-12	-5.001894e-12	-1.050095e-14	-9.867479e-14	5.014250e-12	4.900410e-12	-5.003644e-12	-5.001810e-12	1.000568e-11	-9.986310e-12
5.323031072002735e-02	5.000000e+00	5.003424e-11	0.000000e+00	5.000000e+00	5.000000e+00	5.007145e-11	5.012287e-12	-5.003570e-12	-1.050011e-14	5.016728e-12	-5.006661e-12	-1.050135e-14	2.302412e-13	5.014041e-12	5.194890e-12	-5.003423e-12	-5.007144e-12	1.001023e-11	-1.004305e-11
5.425431072002837e-02	5.000000e+00	5.003441e-11	0.000000e+00	5.000000e+00	5.000000e+00	4.996827e-11	5.012287e-12	-5.003675e-12	-1.050044e-14	5.007846e-12	-4.996159e-12	-1.050132e-14	-3.618076e-13	5.014117e-12	4.669830e-12	-5.003441e-12	-4.996827e-12	9.999833e-12	-1.004137e-11
5.527831072002939e-02	5.000000e+00	5.003369e-11	0.000000e+00	5.000000e+00	5.000000e+00	5.004017e-11	5.012287e-12	-5.003369e-12	-1.050018e-14	5.014507e-12	-5.004465e-12	-1.050252e-14	9.867479e-14	5.013836e-12	5.101488e-12	-5.003368e-12	-5.004017e-12	1.000783e-11	-1.005881e-11
5.630231072003042e-02	5.000000e+00	5.003457e-11	0.000000e+00	5.000000e+00	5.000000e+00	5.001708e-11	5.012287e-12	-5.003692e-12	-1.050046e-14	5.010067e-12	-5.000582e-12	-1.049673e-14	-9.867479e-14	5.014135e-12	4.897662e-12	-5.003457e-12	-5.001708e-12	1.000427e-11	-1.004908e-11
5.732631072003144e-02	5.000000e+00	5.003614e-11	0.000000e+00	5.000000e+00	5.000000e+00	5.002971e-11	5.013767e-12	-5.003757e-12	-1.050039e-14	5.011547e-12	-5.000916e-12	-1.049753e-14	-3.289160e-14	5.014222e-12	4.940865e-12	-5.003614e-12	-5.002971e-12	1.000467e-11	-1.007568e-11
5.835031072003247e-02	5.000000e+00	5.003390e-11	0.000000e+00	5.000000e+00	5.000000e+00	5.003870e-11	5.012287e-12	-5.003394e-12	-1.050007e-14	5.014507e-12	-5.003623e-12	-1.049827e-14	-2.202509e-25	5.013867e-12	4.995979e-12	-5.003390e-12	-5.003870e-12	1.000702e-11	-9.995526e-12
5.937431072003349e-02	5.000000e+00	5.003167e-11	0.000000e+00	5.000000e+00	5.000000e+00	5.005906e-11	5.013767e-12	-5.003170e-12	-1.049970e-14	5.017468e-12	-5.006177e-12	-1.049859e-14	1.315664e-13	5.014229e-12	5.156410e-12	-5.003168e-12	-5.005906e-12	1.000935e-11	-1.002901e-11
6.039831072003451e-02	5.000000e+00	5.003417e-11	0.000000e+00	5.000000e+00	5.000000e+00	5.005958e-11	5.012287e-12	-5.003563e-12	-1.050005e-14	5.017468e-12	-5.005988e-12	-1.050283e-14	1.315664e-13	5.014036e-12	5.173242e-12	-5.003417e-12	-5.005958e-12	1.000955e-11	-1.005486e-11
6.142231072003554e-02	5.000000e+00	5.003369e-11	0.000000e+00	5.000000e+00	5.000000e+00	5.003994e-11	5.012287e-12	-5.003366e-12	-1.049990e-14	5.013767e-12	-5.003005e-12	-1.050015e-14	3.289160e-14	5.013843e-12	5.009833e-12	-5.003369e-12	-5.003994e-12	1.000637e-11	-1.004007e-11
6.244631072003656e-02	5.000000e+00	5.003653e-11	0.000000e+00	5.000000e+00	5.000000e+00	5.007093e-11	5.013767e-12	-5.003799e-12	-1.050044e-14	5.018208e-12	-5.007587e-12	-1.050117e-14	1.973496e-13	5.014267e-12	5.162014e-12	-5.003653e-12	-5.007093e-12	1.001139e-11	-9.964303e-12
6.347031072003759e-02	5.000000e+00	5.003104e-11	0.000000e+00	5.000000e+00	5.000000e+00	5.000797e-11	5.013767e-12	-5.003105e-12	-1.049933e-14	5.011547e-12	-5.001177e-12	-1.050044e-14	-1.315664e-13	5.014175e-12	4.833418e-12	-5.003104e-12	-5.000797e-12	1.000428e-11	-9.955011e-12
6.449431072003861e-02	5.000000e+00	5.003344e-11	0.000000e+00	5.000000e+00	5.000000e+00	4.999955e-11	5.012287e-12	-5.003344e-12	-1.050004e-14	5.009326e-12	-4.999352e-12	-1.049935e-14	-2.302412e-13	5.013815e-12	4.796279e-12	-5.003344e-12	-4.999954e-12	1.000270e-11	-1.000853e-11
6.551831072003964e-02	5.000000e+00	5.003374e-11	0.000000e+00	5.000000e+00	5.000000e+00	5.003059e-11	5.012287e-12	-5.003373e-12	-1.050006e-14	5.015247e-12	-5.004316e-12	-1.050143e-14	3.289160e-14	5.013844e-12	5.023935e-12	-5.003374e-12	-5.003059e-12	1.000769e-11	-9.988774e-12
6.654231072004066e-02	5.000000e+00	5.003191e-11	0.000000e+00	5.000000e+00	5.000000e+00	5.005320e-11	5.013027e-12	-5.003188e-12	-1.049923e-14	5.014507e-12	-5.004506e-12	-1.049833e-14	9.867479e-14	5.014263e-12	5.055661e-12	-5.003191e-12	-5.005320e-12	1.000769e-11	-1.001157e-11
6.756631072004168e-02	5.000000e+00	5.003357e-11	0.000000e+00	5.000000e+00	5.000000e+00	4.997344e-11	5.012287e-12	-5.003357e-12	-1.050005e-14	5.007846e-12	-4.997412e-12	-1.049983e-14	-3.289160e-13	5.013827e-12	4.675499e-12	-5.003357e-12	-4.997344e-12	1.000077e-11	-9.984386e-12
6.859031072004271e-02	5.000000e+00	5.003300e-11	0.000000e+00	5.000000e+00	5.000000e+00	5.001771e-11	5.012287e-12	-5.003302e-12	-1.050011e-14	5.011547e-12	-5.001752e-12	-1.050034e-14	-1.315664e-13	5.013770e-12	4.844999e-12	-5.003300e-12	-5.001771e-12	1.000505e-11	-9.937546e-12
6.961431072004373e-02	5.000000e+00	5.003176e-11	0.000000e+00	5.000000e+00	5.000000e+00	4.999718e-11	5.013027e-12	-5.003260e-12	-1.050006e-14	5.012287e-12	-5.001174e-12	-1.050405e-14	-1.315664e-13	5.013754e-12	4.826554e-12	-5.003176e-12	-4.999718e-12	1.000443e-11	-9.947673e-12
7.063831072004476e-02	5.000000e+00	5.003507e-11	0.000000e+00	5.000000e+00	5.000000e+00	5.005020e-11	5.012287e-12	-5.003655e-12	-1.050028e-14	5.014507e-12	-5.004313e-12	-1.049900e-14	9.867479e-14	5.014122e-12	5.057972e-12	-5.003507e-12	-5.005020e-12	1.000797e-11	-1.002332e-11
7.166231072004578e-02	5.000000e+00	5.003252e-11	0.000000e+00	5.000000e+00	5.000000e+00	5.002996e-11	5.013027e-12	-5.003248e-12	-1.049937e-14	5.015247e-12	-5.004374e-12	-1.050247e-14	-3.289160e-14	5.014320e-12	4.956563e-12	-5.003252e-12	-5.002996e-12	1.000762e-11	-9.918913e-12
