vs	V(nout)	V(n002)	V(n003)	V(n004)	V(n001)	I(D1)	I(D2)	I(D3)	I(D4)	I(Rs)	I(Vs)
5.000000000000000e+00	2.706362e+00	2.029772e+00	1.353181e+00	6.765906e-01	5.000000e+00	2.293639e-03	2.293639e-03	2.293639e-03	2.293639e-03	2.293638e-03	-2.293639e-03
5.100000000000000e+00	2.710677e+00	2.033008e+00	1.355339e+00	6.776693e-01	5.100000e+00	2.389407e-03	2.389407e-03	2.389407e-03	2.389407e-03	2.389323e-03	-2.389407e-03
5.199999999999999e+00	2.714666e+00	2.036000e+00	1.357333e+00	6.786666e-01	5.200000e+00	2.485334e-03	2.485334e-03	2.485334e-03	2.485334e-03	2.485334e-03	-2.485334e-03
5.299999999999999e+00	2.718590e+00	2.038942e+00	1.359295e+00	6.796474e-01	5.300000e+00	2.581410e-03	2.581410e-03	2.581410e-03	2.581410e-03	2.581410e-03	-2.581410e-03
5.399999999999999e+00	2.722376e+00	2.041782e+00	1.361188e+00	6.805940e-01	5.400000e+00	2.677624e-03	2.677624e-03	2.677624e-03	2.677624e-03	2.677624e-03	-2.677624e-03
5.499999999999998e+00	2.726033e+00	2.044525e+00	1.363017e+00	6.815083e-01	5.500000e+00	2.773967e-03	2.773967e-03	2.773967e-03	2.773967e-03	2.773967e-03	-2.773967e-03
5.599999999999998e+00	2.729570e+00	2.047177e+00	1.364785e+00	6.823924e-01	5.600000e+00	2.870430e-03	2.870430e-03	2.870430e-03	2.870430e-03	2.870430e-03	-2.870430e-03
5.699999999999998e+00	2.732993e+00	2.049745e+00	1.366497e+00	6.832483e-01	5.700000e+00	2.967007e-03	2.967007e-03	2.967007e-03	2.967007e-03	2.967007e-03	-2.967007e-03
5.799999999999997e+00	2.736311e+00	2.052233e+00	1.368155e+00	6.840777e-01	5.800000e+00	3.063689e-03	3.063689e-03	3.063689e-03	3.063689e-03	3.063689e-03	-3.063689e-03
5.899999999999997e+00	2.739529e+00	2.054646e+00	1.369764e+00	6.848822e-01	5.900000e+00	3.160471e-03	3.160471e-03	3.160471e-03	3.160471e-03	3.160471e-03	-3.160471e-03
5.999999999999996e+00	2.742652e+00	2.056989e+00	1.371326e+00	6.856631e-01	6.000000e+00	3.257348e-03	3.257348e-03	3.257348e-03	3.257348e-03	3.257348e-03	-3.257348e-03
6.099999999999996e+00	2.745687e+00	2.059265e+00	1.372844e+00	6.864218e-01	6.100000e+00	3.354313e-03	3.354313e-03	3.354313e-03	3.354313e-03	3.354313e-03	-3.354313e-03
6.199999999999996e+00	2.748638e+00	2.061479e+00	1.374319e+00	6.871595e-01	6.200000e+00	3.451362e-03	3.451362e-03	3.451362e-03	3.451362e-03	3.451362e-03	-3.451362e-03
6.299999999999995e+00	2.751509e+00	2.063632e+00	1.375755e+00	6.878774e-01	6.300000e+00	3.548491e-03	3.548491e-03	3.548491e-03	3.548491e-03	3.548491e-03	-3.548491e-03
6.399999999999995e+00	2.754305e+00	2.065729e+00	1.377153e+00	6.885763e-01	6.400000e+00	3.645695e-03	3.645695e-03	3.645695e-03	3.645695e-03	3.645695e-03	-3.645695e-03
6.499999999999995e+00	2.757030e+00	2.067772e+00	1.378515e+00	6.892574e-01	6.500000e+00	3.742970e-03	3.742970e-03	3.742970e-03	3.742970e-03	3.742970e-03	-3.742970e-03
6.599999999999994e+00	2.759686e+00	2.069765e+00	1.379843e+00	6.899215e-01	6.600000e+00	3.840314e-03	3.840314e-03	3.840314e-03	3.840314e-03	3.840314e-03	-3.840314e-03
6.699999999999994e+00	2.762278e+00	2.071708e+00	1.381139e+00	6.905694e-01	6.700000e+00	3.937723e-03	3.937723e-03	3.937723e-03	3.937723e-03	3.937723e-03	-3.937723e-03
6.799999999999994e+00	2.764807e+00	2.073606e+00	1.382404e+00	6.912018e-01	6.800000e+00	4.035193e-03	4.035193e-03	4.035193e-03	4.035193e-03	4.035193e-03	-4.035193e-03
6.899999999999993e+00	2.767278e+00	2.075459e+00	1.383639e+00	6.918195e-01	6.900000e+00	4.132722e-03	4.132722e-03	4.132722e-03	4.132722e-03	4.132722e-03	-4.132722e-03
6.999999999999993e+00	2.769693e+00	2.077270e+00	1.384846e+00	6.924232e-01	7.000000e+00	4.230307e-03	4.230307e-03	4.230307e-03	4.230307e-03	4.230307e-03	-4.230307e-03
7.099999999999993e+00	2.772053e+00	2.079040e+00	1.386027e+00	6.930134e-01	7.100000e+00	4.327946e-03	4.327946e-03	4.327946e-03	4.327946e-03	4.327946e-03	-4.327946e-03
7.199999999999992e+00	2.774363e+00	2.080772e+00	1.387181e+00	6.935907e-01	7.200000e+00	4.425637e-03	4.425637e-03	4.425637e-03	4.425637e-03	4.425637e-03	-4.425637e-03
7.299999999999992e+00	2.776623e+00	2.082467e+00	1.388311e+00	6.941557e-01	7.300000e+00	4.523377e-03	4.523377e-03	4.523377e-03	4.523377e-03	4.523377e-03	-4.523377e-03
7.399999999999991e+00	2.778836e+00	2.084127e+00	1.389418e+00	6.947089e-01	7.400000e+00	4.621164e-03	4.621164e-03	4.621164e-03	4.621164e-03	4.621164e-03	-4.621164e-03
7.499999999999991e+00	2.781003e+00	2.085752e+00	1.390501e+00	6.952507e-01	7.500000e+00	4.718997e-03	4.718997e-03	4.718997e-03	4.718997e-03	4.718997e-03	-4.718997e-03
7.599999999999991e+00	2.783127e+00	2.087345e+00	1.391564e+00	6.957818e-01	7.600000e+00	4.816873e-03	4.816873e-03	4.816873e-03	4.816873e-03	4.816873e-03	-4.816873e-03
7.699999999999990e+00	2.785209e+00	2.088907e+00	1.392604e+00	6.963022e-01	7.700000e+00	4.914791e-03	4.914791e-03	4.914791e-03	4.914791e-03	4.914791e-03	-4.914791e-03
7.799999999999990e+00	2.787251e+00	2.090438e+00	1.393625e+00	6.968127e-01	7.800000e+00	5.012749e-03	5.012749e-03	5.012749e-03	5.012749e-03	5.012749e-03	-5.012749e-03
7.899999999999990e+00	2.789254e+00	2.091940e+00	1.394627e+00	6.973135e-01	7.900000e+00	5.110746e-03	5.110746e-03	5.110746e-03	5.110746e-03	5.110746e-03	-5.110746e-03
7.999999999999989e+00	2.791220e+00	2.093415e+00	1.395610e+00	6.978049e-01	8.000000e+00	5.208781e-03	5.208781e-03	5.208781e-03	5.208781e-03	5.208781e-03	-5.208781e-03
8.099999999999989e+00	2.793149e+00	2.094862e+00	1.396575e+00	6.982874e-01	8.100000e+00	5.306851e-03	5.306851e-03	5.306851e-03	5.306851e-03	5.306851e-03	-5.306851e-03
8.199999999999989e+00	2.795045e+00	2.096283e+00	1.397522e+00	6.987612e-01	8.200000e+00	5.404955e-03	5.404955e-03	5.404955e-03	5.404955e-03	5.404955e-03	-5.404955e-03
8.299999999999988e+00	2.796906e+00	2.097680e+00	1.398453e+00	6.992266e-01	8.300000e+00	5.503094e-03	5.503094e-03	5.503094e-03	5.503094e-03	5.503094e-03	-5.503094e-03
8.399999999999988e+00	2.798736e+00	2.099052e+00	1.399368e+00	6.996839e-01	8.400000e+00	5.601265e-03	5.601265e-03	5.601265e-03	5.601265e-03	5.601265e-03	-5.601265e-03
8.499999999999988e+00	2.800534e+00	2.100400e+00	1.400267e+00	7.001334e-01	8.500000e+00	5.699466e-03	5.699466e-03	5.699466e-03	5.699466e-03	5.699466e-03	-5.699466e-03
8.599999999999987e+00	2.802302e+00	2.101726e+00	1.401151e+00	7.005755e-01	8.600000e+00	5.797698e-03	5.797698e-03	5.797698e-03	5.797698e-03	5.797698e-03	-5.797698e-03
8.699999999999987e+00	2.804041e+00	2.103030e+00	1.402020e+00	7.010102e-01	8.700000e+00	5.895959e-03	5.895959e-03	5.895959e-03	5.895959e-03	5.895959e-03	-5.895959e-03
8.799999999999986e+00	2.805751e+00	2.104313e+00	1.402876e+00	7.014378e-01	8.800000e+00	5.994249e-03	5.994249e-03	5.994249e-03	5.994249e-03	5.994249e-03	-5.994249e-03
8.899999999999986e+00	2.807434e+00	2.105576e+00	1.403717e+00	7.018586e-01	8.900000e+00	6.092566e-03	6.092566e-03	6.092566e-03	6.092566e-03	6.092566e-03	-6.092566e-03
8.999999999999986e+00	2.809091e+00	2.106818e+00	1.404545e+00	7.022727e-01	9.000000e+00	6.190909e-03	6.190909e-03	6.190909e-03	6.190909e-03	6.190909e-03	-6.190909e-03
9.099999999999985e+00	2.810722e+00	2.108042e+00	1.405361e+00	7.026805e-01	9.100000e+00	6.289278e-03	6.289278e-03	6.289278e-03	6.289278e-03	6.289278e-03	-6.289278e-03
9.199999999999985e+00	2.812328e+00	2.109246e+00	1.406164e+00	7.030820e-01	9.200000e+00	6.387672e-03	6.387672e-03	6.387672e-03	6.387672e-03	6.387672e-03	-6.387672e-03
9.299999999999985e+00	2.813910e+00	2.110432e+00	1.406955e+00	7.034774e-01	9.300000e+00	6.486090e-03	6.486090e-03	6.486090e-03	6.486090e-03	6.486090e-03	-6.486090e-03
9.399999999999984e+00	2.815468e+00	2.111601e+00	1.407734e+00	7.038671e-01	9.400000e+00	6.584532e-03	6.584532e-03	6.584532e-03	6.584532e-03	6.584532e-03	-6.584532e-03
9.499999999999984e+00	2.817004e+00	2.112753e+00	1.408502e+00	7.042510e-01	9.500000e+00	6.682996e-03	6.682996e-03	6.682996e-03	6.682996e-03	6.682996e-03	-6.682996e-03
9.599999999999984e+00	2.818517e+00	2.113888e+00	1.409259e+00	7.046294e-01	9.600000e+00	6.781483e-03	6.781483e-03	6.781483e-03	6.781483e-03	6.781483e-03	-6.781483e-03
9.699999999999983e+00	2.820010e+00	2.115007e+00	1.410005e+00	7.050024e-01	9.700000e+00	6.879990e-03	6.879990e-03	6.879990e-03	6.879990e-03	6.879990e-03	-6.879990e-03
9.799999999999983e+00	2.821481e+00	2.116111e+00	1.410740e+00	7.053702e-01	9.800000e+00	6.978519e-03	6.978519e-03	6.978519e-03	6.978519e-03	6.978519e-03	-6.978519e-03
9.899999999999983e+00	2.822932e+00	2.117199e+00	1.411466e+00	7.057329e-01	9.900000e+00	7.077069e-03	7.077069e-03	7.077069e-03	7.077069e-03	7.077069e-03	-7.077069e-03
9.999999999999982e+00	2.824363e+00	2.118272e+00	1.412181e+00	7.060906e-01	1.000000e+01	7.175637e-03	7.175637e-03	7.175637e-03	7.175637e-03	7.175637e-03	-7.175637e-03
1.009999999999998e+01	2.825774e+00	2.119331e+00	1.412887e+00	7.064436e-01	1.010000e+01	7.274226e-03	7.274226e-03	7.274226e-03	7.274226e-03	7.274226e-03	-7.274226e-03
1.019999999999998e+01	2.827168e+00	2.120376e+00	1.413584e+00	7.067919e-01	1.020000e+01	7.372832e-03	7.372832e-03	7.372832e-03	7.372832e-03	7.372832e-03	-7.372832e-03
1.029999999999998e+01	2.828542e+00	2.121407e+00	1.414271e+00	7.071356e-01	1.030000e+01	7.471458e-03	7.471458e-03	7.471458e-03	7.471458e-03	7.471458e-03	-7.471458e-03
1.039999999999998e+01	2.829899e+00	2.122424e+00	1.414950e+00	7.074748e-01	1.040000e+01	7.570101e-03	7.570101e-03	7.570101e-03	7.570101e-03	7.570101e-03	-7.570101e-03
1.049999999999998e+01	2.831239e+00	2.123429e+00	1.415619e+00	7.078097e-01	1.050000e+01	7.668761e-03	7.668761e-03	7.668761e-03	7.668761e-03	7.668761e-03	-7.668761e-03
1.059999999999998e+01	2.832562e+00	2.124421e+00	1.416281e+00	7.081404e-01	1.060000e+01	7.767438e-03	7.767438e-03	7.767438e-03	7.767438e-03	7.767438e-03	-7.767438e-03
1.069999999999998e+01	2.833868e+00	2.125401e+00	1.416934e+00	7.084670e-01	1.070000e+01	7.866132e-03	7.866132e-03	7.866132e-03	7.866132e-03	7.866132e-03	-7.866132e-03
1.079999999999998e+01	2.835158e+00	2.126369e+00	1.417579e+00	7.087895e-01	1.080000e+01	7.964842e-03	7.964842e-03	7.964842e-03	7.964842e-03	7.964842e-03	-7.964842e-03
1.089999999999998e+01	2.836433e+00	2.127325e+00	1.418216e+00	7.091082e-01	1.090000e+01	8.063567e-03	8.063567e-03	8.063567e-03	8.063567e-03	8.063567e-03	-8.063567e-03
1.099999999999998e+01	2.837692e+00	2.128269e+00	1.418846e+00	7.094229e-01	1.100000e+01	8.162308e-03	8.162308e-03	8.162308e-03	8.162308e-03	8.162308e-03	-8.162308e-03
1.109999999999998e+01	2.838936e+00	2.129202e+00	1.419468e+00	7.097340e-01	1.110000e+01	8.261064e-03	8.261064e-03	8.261064e-03	8.261064e-03	8.261064e-03	-8.261064e-03
1.119999999999998e+01	2.840166e+00	2.130124e+00	1.420083e+00	7.100415e-01	1.120000e+01	8.359835e-03	8.359835e-03	8.359835e-03	8.359835e-03	8.359835e-03	-8.359835e-03
1.129999999999998e+01	2.841381e+00	2.131036e+00	1.420691e+00	7.103453e-01	1.130000e+01	8.458619e-03	8.458619e-03	8.458619e-03	8.458619e-03	8.458619e-03	-8.458619e-03
1.139999999999998e+01	2.842583e+00	2.131937e+00	1.421291e+00	7.106457e-01	1.140000e+01	8.557417e-03	8.557417e-03	8.557417e-03	8.557417e-03	8.557417e-03	-8.557417e-03
1.149999999999998e+01	2.843771e+00	2.132828e+00	1.421885e+00	7.109426e-01	1.150000e+01	8.656230e-03	8.656230e-03	8.656230e-03	8.656230e-03	8.656230e-03	-8.656230e-03
1.159999999999998e+01	2.844945e+00	2.133709e+00	1.422472e+00	7.112362e-01	1.160000e+01	8.755055e-03	8.755055e-03	8.755055e-03	8.755055e-03	8.755055e-03	-8.755055e-03
1.169999999999998e+01	2.846106e+00	2.134580e+00	1.423053e+00	7.115266e-01	1.170000e+01	8.853894e-03	8.853894e-03	8.853894e-03	8.853894e-03	8.853894e-03	-8.853894e-03
1.179999999999998e+01	2.847255e+00	2.135441e+00	1.423627e+00	7.118137e-01	1.180000e+01	8.952745e-03	8.952745e-03	8.952745e-03	8.952745e-03	8.952745e-03	-8.952745e-03
1.189999999999998e+01	2.848391e+00	2.136293e+00	1.424196e+00	7.120978e-01	1.190000e+01	9.051609e-03	9.051609e-03	9.051609e-03	9.051609e-03	9.051609e-03	-9.051609e-03
1.199999999999998e+01	2.849515e+00	2.137136e+00	1.424758e+00	7.123788e-01	1.200000e+01	9.150485e-03	9.150485e-03	9.150485e-03	9.150485e-03	9.150485e-03	-9.150485e-03
1.209999999999997e+01	2.850627e+00	2.137970e+00	1.425314e+00	7.126569e-01	1.210000e+01	9.249372e-03	9.249372e-03	9.249372e-03	9.249372e-03	9.249372e-03	-9.249372e-03
1.219999999999997e+01	2.851728e+00	2.138796e+00	1.425864e+00	7.129319e-01	1.220000e+01	9.348272e-03	9.348272e-03	9.348272e-03	9.348272e-03	9.348272e-03	-9.348272e-03
1.229999999999997e+01	2.852817e+00	2.139612e+00	1.426408e+00	7.132041e-01	1.230000e+01	9.447183e-03	9.447183e-03	9.447183e-03	9.447183e-03	9.447183e-03	-9.447183e-03
1.239999999999997e+01	2.853894e+00	2.140421e+00	1.426947e+00	7.134736e-01	1.240000e+01	9.546106e-03	9.546106e-03	9.546106e-03	9.546106e-03	9.546106e-03	-9.546106e-03
1.249999999999997e+01	2.854961e+00	2.141221e+00	1.427481e+00	7.137403e-01	1.250000e+01	9.645039e-03	9.645039e-03	9.645039e-03	9.645039e-03	9.645039e-03	-9.645039e-03
1.259999999999997e+01	2.856017e+00	2.142013e+00	1.428009e+00	7.140043e-01	1.260000e+01	9.743983e-03	9.743983e-03	9.743983e-03	9.743983e-03	9.743983e-03	-9.743983e-03
1.269999999999997e+01	2.857062e+00	2.142797e+00	1.428531e+00	7.142656e-01	1.270000e+01	9.842938e-03	9.842938e-03	9.842938e-03	9.842938e-03	9.842938e-03	-9.842938e-03
1.279999999999997e+01	2.858097e+00	2.143573e+00	1.429049e+00	7.145243e-01	1.280000e+01	9.941903e-03	9.941903e-03	9.941903e-03	9.941903e-03	9.941903e-03	-9.941903e-03
1.289999999999997e+01	2.859122e+00	2.144342e+00	1.429561e+00	7.147806e-01	1.290000e+01	1.004088e-02	1.004088e-02	1.004088e-02	1.004088e-02	1.004088e-02	-1.004088e-02
1.299999999999997e+01	2.860137e+00	2.145103e+00	1.430069e+00	7.150343e-01	1.300000e+01	1.013986e-02	1.013986e-02	1.013986e-02	1.013986e-02	1.013986e-02	-1.013986e-02
1.309999999999997e+01	2.861142e+00	2.145857e+00	1.430571e+00	7.152856e-01	1.310000e+01	1.023886e-02	1.023886e-02	1.023886e-02	1.023886e-02	1.023886e-02	-1.023886e-02
1.319999999999997e+01	2.862138e+00	2.146604e+00	1.431069e+00	7.155345e-01	1.320000e+01	1.033786e-02	1.033786e-02	1.033786e-02	1.033786e-02	1.033786e-02	-1.033786e-02
1.329999999999997e+01	2.863124e+00	2.147343e+00	1.431562e+00	7.157810e-01	1.330000e+01	1.043688e-02	1.043688e-02	1.043688e-02	1.043688e-02	1.043688e-02	-1.043688e-02
1.339999999999997e+01	2.864101e+00	2.148076e+00	1.432051e+00	7.160253e-01	1.340000e+01	1.053590e-02	1.053590e-02	1.053590e-02	1.053590e-02	1.053590e-02	-1.053590e-02
1.349999999999997e+01	2.865069e+00	2.148802e+00	1.432535e+00	7.162673e-01	1.350000e+01	1.063493e-02	1.063493e-02	1.063493e-02	1.063493e-02	1.063493e-02	-1.063493e-02
1.359999999999997e+01	2.866028e+00	2.149521e+00	1.433014e+00	7.165070e-01	1.360000e+01	1.073397e-02	1.073397e-02	1.073397e-02	1.073397e-02	1.073397e-02	-1.073397e-02
1.369999999999997e+01	2.866978e+00	2.150234e+00	1.433489e+00	7.167446e-01	1.370000e+01	1.083302e-02	1.083302e-02	1.083302e-02	1.083302e-02	1.083302e-02	-1.083302e-02
1.379999999999997e+01	2.867920e+00	2.150940e+00	1.433960e+00	7.169800e-01	1.380000e+01	1.093208e-02	1.093208e-02	1.093208e-02	1.093208e-02	1.093208e-02	-1.093208e-02
1.389999999999997e+01	2.868854e+00	2.151640e+00	1.434427e+00	7.172134e-01	1.390000e+01	1.103115e-02	1.103115e-02	1.103115e-02	1.103115e-02	1.103115e-02	-1.103115e-02
1.399999999999997e+01	2.869779e+00	2.152334e+00	1.434889e+00	7.174447e-01	1.400000e+01	1.113022e-02	1.113022e-02	1.113022e-02	1.113022e-02	1.113022e-02	-1.113022e-02
1.409999999999997e+01	2.870696e+00	2.153022e+00	1.435348e+00	7.176739e-01	1.410000e+01	1.122930e-02	1.122930e-02	1.122930e-02	1.122930e-02	1.122930e-02	-1.122930e-02
1.419999999999997e+01	2.871604e+00	2.153703e+00	1.435802e+00	7.179011e-01	1.420000e+01	1.132840e-02	1.132840e-02	1.132840e-02	1.132840e-02	1.132840e-02	-1.132840e-02
1.429999999999997e+01	2.872506e+00	2.154379e+00	1.436253e+00	7.181264e-01	1.430000e+01	1.142749e-02	1.142749e-02	1.142749e-02	1.142749e-02	1.142749e-02	-1.142749e-02
1.439999999999997e+01	2.873399e+00	2.155049e+00	1.436700e+00	7.183498e-01	1.440000e+01	1.152660e-02	1.152660e-02	1.152660e-02	1.152660e-02	1.152660e-02	-1.152660e-02
1.449999999999997e+01	2.874285e+00	2.155714e+00	1.437142e+00	7.185712e-01	1.450000e+01	1.162572e-02	1.162572e-02	1.162572e-02	1.162572e-02	1.162572e-02	-1.162572e-02
1.459999999999997e+01	2.875163e+00	2.156372e+00	1.437582e+00	7.187908e-01	1.460000e+01	1.172484e-02	1.172484e-02	1.172484e-02	1.172484e-02	1.172484e-02	-1.172484e-02
1.469999999999997e+01	2.876034e+00	2.157026e+00	1.438017e+00	7.190086e-01	1.470000e+01	1.182397e-02	1.182397e-02	1.182397e-02	1.182397e-02	1.182397e-02	-1.182397e-02
1.479999999999997e+01	2.876898e+00	2.157674e+00	1.438449e+00	7.192245e-01	1.480000e+01	1.192310e-02	1.192310e-02	1.192310e-02	1.192310e-02	1.192310e-02	-1.192310e-02
1.489999999999996e+01	2.877755e+00	2.158316e+00	1.438877e+00	7.194387e-01	1.490000e+01	1.202224e-02	1.202224e-02	1.202224e-02	1.202224e-02	1.202224e-02	-1.202224e-02
1.500000000000000e+01	2.878605e+00	2.158953e+00	1.439302e+00	7.196512e-01	1.500000e+01	1.212140e-02	1.212140e-02	1.212140e-02	1.212140e-02	1.212140e-02	-1.212140e-02
