v1	V(in)	V(out)	I(D1)	I(R1)	I(R2)	I(V1)
0.000000000000000e+00	0.000000e+00	0.000000e+00	0.000000e+00	0.000000e+00	0.000000e+00	0.000000e+00
1.000000000000000e-03	1.000000e-03	4.999997e-04	-6.932178e-13	-5.000003e-07	4.999997e-07	-5.000003e-07
2.000000000000000e-03	2.000000e-03	9.999993e-04	-1.380167e-12	-1.000001e-06	9.999993e-07	-1.000001e-06
3.000000000000000e-03	3.000000e-03	1.499999e-03	-2.060905e-12	-1.500001e-06	1.499999e-06	-1.500001e-06
4.000000000000000e-03	4.000000e-03	1.999999e-03	-2.735491e-12	-2.000001e-06	1.999999e-06	-2.000001e-06
5.000000000000000e-03	5.000000e-03	2.499998e-03	-3.403980e-12	-2.500002e-06	2.499998e-06	-2.500002e-06
6.000000000000000e-03	6.000000e-03	2.999998e-03	-4.066431e-12	-3.000002e-06	2.999998e-06	-3.000002e-06
7.000000000000000e-03	7.000000e-03	3.499998e-03	-4.722899e-12	-3.500002e-06	3.499998e-06	-3.500002e-06
8.000000000000000e-03	8.000000e-03	3.999997e-03	-5.373439e-12	-4.000003e-06	3.999997e-06	-4.000003e-06
9.000000000000001e-03	9.000000e-03	4.499997e-03	-6.018106e-12	-4.500003e-06	4.499997e-06	-4.500003e-06
1.000000000000000e-02	1.000000e-02	4.999997e-03	-6.656956e-12	-5.000004e-06	4.999997e-06	-5.000004e-06
1.100000000000000e-02	1.100000e-02	5.499996e-03	-7.290042e-12	-5.500004e-06	5.499996e-06	-5.500004e-06
1.200000000000000e-02	1.200000e-02	5.999996e-03	-7.917418e-12	-6.000004e-06	5.999996e-06	-6.000004e-06
1.300000000000000e-02	1.300000e-02	6.499996e-03	-8.539136e-12	-6.500004e-06	6.499996e-06	-6.500004e-06
1.400000000000001e-02	1.400000e-02	6.999996e-03	-9.155250e-12	-7.000005e-06	6.999996e-06	-7.000005e-06
1.500000000000001e-02	1.500000e-02	7.499995e-03	-9.765811e-12	-7.500005e-06	7.499995e-06	-7.500005e-06
1.600000000000001e-02	1.600000e-02	7.999995e-03	-1.037087e-11	-8.000005e-06	7.999995e-06	-8.000005e-06
1.700000000000001e-02	1.700000e-02	8.499995e-03	-1.097048e-11	-8.500006e-06	8.499995e-06	-8.500006e-06
1.800000000000001e-02	1.800000e-02	8.999994e-03	-1.156469e-11	-9.000006e-06	8.999994e-06	-9.000006e-06
1.900000000000001e-02	1.900000e-02	9.499994e-03	-1.215356e-11	-9.500006e-06	9.499994e-06	-9.500006e-06
2.000000000000001e-02	2.000000e-02	9.999993e-03	-1.273712e-11	-1.000001e-05	9.999993e-06	-1.000001e-05
2.100000000000001e-02	2.100000e-02	1.049999e-02	-1.331543e-11	-1.050001e-05	1.049999e-05	-1.050001e-05
2.200000000000001e-02	2.200000e-02	1.099999e-02	-1.388854e-11	-1.100001e-05	1.099999e-05	-1.100001e-05
2.300000000000001e-02	2.300000e-02	1.149999e-02	-1.445650e-11	-1.150001e-05	1.149999e-05	-1.150001e-05
2.400000000000001e-02	2.400000e-02	1.199999e-02	-1.501935e-11	-1.200001e-05	1.199999e-05	-1.200001e-05
2.500000000000002e-02	2.500000e-02	1.249999e-02	-1.557715e-11	-1.250001e-05	1.249999e-05	-1.250001e-05
2.600000000000002e-02	2.600000e-02	1.299999e-02	-1.612993e-11	-1.300001e-05	1.299999e-05	-1.300001e-05
2.700000000000002e-02	2.700000e-02	1.349999e-02	-1.667775e-11	-1.350001e-05	1.349999e-05	-1.350001e-05
2.800000000000002e-02	2.800000e-02	1.399999e-02	-1.722065e-11	-1.400001e-05	1.399999e-05	-1.400001e-05
2.900000000000002e-02	2.900000e-02	1.449999e-02	-1.775868e-11	-1.450001e-05	1.449999e-05	-1.450001e-05
3.000000000000002e-02	3.000000e-02	1.499999e-02	-1.829189e-11	-1.500001e-05	1.499999e-05	-1.500001e-05
3.100000000000002e-02	3.100000e-02	1.549999e-02	-1.882031e-11	-1.550001e-05	1.549999e-05	-1.550001e-05
3.200000000000002e-02	3.200000e-02	1.599999e-02	-1.934399e-11	-1.600001e-05	1.599999e-05	-1.600001e-05
3.300000000000002e-02	3.300000e-02	1.649999e-02	-1.986298e-11	-1.650001e-05	1.649999e-05	-1.650001e-05
3.400000000000002e-02	3.400000e-02	1.699999e-02	-2.037732e-11	-1.700001e-05	1.699999e-05	-1.700001e-05
3.500000000000002e-02	3.500000e-02	1.749999e-02	-2.088705e-11	-1.750001e-05	1.749999e-05	-1.750001e-05
3.600000000000003e-02	3.600000e-02	1.799999e-02	-2.139221e-11	-1.800001e-05	1.799999e-05	-1.800001e-05
3.700000000000003e-02	3.700000e-02	1.849999e-02	-2.189286e-11	-1.850001e-05	1.849999e-05	-1.850001e-05
3.800000000000003e-02	3.800000e-02	1.899999e-02	-2.238903e-11	-1.900001e-05	1.899999e-05	-1.900001e-05
3.900000000000003e-02	3.900000e-02	1.949999e-02	-2.288075e-11	-1.950001e-05	1.949999e-05	-1.950001e-05
4.000000000000003e-02	4.000000e-02	1.999999e-02	-2.336809e-11	-2.000001e-05	1.999999e-05	-2.000001e-05
4.100000000000003e-02	4.100000e-02	2.049999e-02	-2.385106e-11	-2.050001e-05	2.049999e-05	-2.050001e-05
4.200000000000003e-02	4.200000e-02	2.099999e-02	-2.432972e-11	-2.100001e-05	2.099999e-05	-2.100001e-05
4.300000000000003e-02	4.300000e-02	2.149999e-02	-2.480410e-11	-2.150001e-05	2.149999e-05	-2.150001e-05
4.400000000000003e-02	4.400000e-02	2.199999e-02	-2.527425e-11	-2.200001e-05	2.199999e-05	-2.200001e-05
4.500000000000003e-02	4.500000e-02	2.249999e-02	-2.574021e-11	-2.250001e-05	2.249999e-05	-2.250001e-05
4.600000000000003e-02	4.600000e-02	2.299999e-02	-2.620200e-11	-2.300001e-05	2.299999e-05	-2.300001e-05
4.700000000000003e-02	4.700000e-02	2.349999e-02	-2.665968e-11	-2.350001e-05	2.349999e-05	-2.350001e-05
4.800000000000004e-02	4.800000e-02	2.399999e-02	-2.711327e-11	-2.400001e-05	2.399999e-05	-2.400001e-05
4.900000000000004e-02	4.900000e-02	2.449999e-02	-2.756283e-11	-2.450001e-05	2.449999e-05	-2.450001e-05
5.000000000000004e-02	5.000000e-02	2.499999e-02	-2.800837e-11	-2.500001e-05	2.499999e-05	-2.500001e-05
5.100000000000004e-02	5.100000e-02	2.549999e-02	-2.844995e-11	-2.550001e-05	2.549998e-05	-2.550001e-05
5.200000000000004e-02	5.200000e-02	2.599999e-02	-2.888761e-11	-2.600001e-05	2.599999e-05	-2.600001e-05
5.300000000000004e-02	5.300000e-02	2.649998e-02	-2.932136e-11	-2.650001e-05	2.649999e-05	-2.650001e-05
5.400000000000004e-02	5.400000e-02	2.699999e-02	-2.975126e-11	-2.700001e-05	2.699999e-05	-2.700001e-05
5.500000000000004e-02	5.500000e-02	2.749998e-02	-3.017734e-11	-2.750001e-05	2.749999e-05	-2.750001e-05
5.600000000000004e-02	5.600000e-02	2.799998e-02	-3.059962e-11	-2.800001e-05	2.799998e-05	-2.800001e-05
5.700000000000004e-02	5.700000e-02	2.849999e-02	-3.101816e-11	-2.850002e-05	2.849998e-05	-2.850002e-05
5.800000000000004e-02	5.800000e-02	2.899998e-02	-3.143298e-11	-2.900002e-05	2.899998e-05	-2.900002e-05
5.900000000000005e-02	5.900000e-02	2.949998e-02	-3.184412e-11	-2.950002e-05	2.949998e-05	-2.950002e-05
6.000000000000005e-02	6.000000e-02	2.999998e-02	-3.225161e-11	-3.000002e-05	2.999998e-05	-3.000002e-05
6.100000000000005e-02	6.100000e-02	3.049998e-02	-3.265549e-11	-3.050002e-05	3.049998e-05	-3.050002e-05
6.200000000000005e-02	6.200000e-02	3.099998e-02	-3.305579e-11	-3.100002e-05	3.099999e-05	-3.100002e-05
6.300000000000004e-02	6.300000e-02	3.149998e-02	-3.345254e-11	-3.150002e-05	3.149998e-05	-3.150002e-05
6.400000000000004e-02	6.400000e-02	3.199998e-02	-3.384577e-11	-3.200002e-05	3.199998e-05	-3.200002e-05
6.500000000000004e-02	6.500000e-02	3.249998e-02	-3.423553e-11	-3.250002e-05	3.249998e-05	-3.250002e-05
6.600000000000004e-02	6.600000e-02	3.299998e-02	-3.462183e-11	-3.300002e-05	3.299998e-05	-3.300002e-05
6.700000000000005e-02	6.700000e-02	3.349998e-02	-3.500472e-11	-3.350002e-05	3.349998e-05	-3.350002e-05
6.800000000000005e-02	6.800000e-02	3.399998e-02	-3.538422e-11	-3.400002e-05	3.399998e-05	-3.400002e-05
6.900000000000005e-02	6.900000e-02	3.449998e-02	-3.576037e-11	-3.450002e-05	3.449998e-05	-3.450002e-05
7.000000000000005e-02	7.000000e-02	3.499998e-02	-3.613320e-11	-3.500002e-05	3.499998e-05	-3.500002e-05
7.100000000000005e-02	7.100000e-02	3.549998e-02	-3.650273e-11	-3.550002e-05	3.549998e-05	-3.550002e-05
7.200000000000005e-02	7.200000e-02	3.599998e-02	-3.686901e-11	-3.600002e-05	3.599998e-05	-3.600002e-05
7.300000000000005e-02	7.300000e-02	3.649998e-02	-3.723205e-11	-3.650002e-05	3.649998e-05	-3.650002e-05
7.400000000000005e-02	7.400000e-02	3.699998e-02	-3.759189e-11	-3.700002e-05	3.699998e-05	-3.700002e-05
7.500000000000005e-02	7.500000e-02	3.749998e-02	-3.794857e-11	-3.750002e-05	3.749998e-05	-3.750002e-05
7.600000000000005e-02	7.600000e-02	3.799998e-02	-3.830210e-11	-3.800002e-05	3.799998e-05	-3.800002e-05
7.700000000000005e-02	7.700000e-02	3.849998e-02	-3.865252e-11	-3.850002e-05	3.849998e-05	-3.850002e-05
7.800000000000006e-02	7.800000e-02	3.899998e-02	-3.899985e-11	-3.900002e-05	3.899998e-05	-3.900002e-05
7.900000000000006e-02	7.900000e-02	3.949998e-02	-3.934413e-11	-3.950002e-05	3.949998e-05	-3.950002e-05
8.000000000000006e-02	8.000000e-02	3.999998e-02	-3.968538e-11	-4.000002e-05	3.999998e-05	-4.000002e-05
8.100000000000006e-02	8.100000e-02	4.049998e-02	-4.002364e-11	-4.050002e-05	4.049998e-05	-4.050002e-05
8.200000000000006e-02	8.200000e-02	4.099998e-02	-4.035892e-11	-4.100002e-05	4.099998e-05	-4.100002e-05
8.300000000000006e-02	8.300000e-02	4.149998e-02	-4.069127e-11	-4.150002e-05	4.149998e-05	-4.150002e-05
8.400000000000006e-02	8.400000e-02	4.199998e-02	-4.102069e-11	-4.200002e-05	4.199998e-05	-4.200002e-05
8.500000000000006e-02	8.500000e-02	4.249998e-02	-4.134723e-11	-4.250002e-05	4.249998e-05	-4.250002e-05
8.600000000000006e-02	8.600000e-02	4.299998e-02	-4.167091e-11	-4.300002e-05	4.299998e-05	-4.300002e-05
8.700000000000006e-02	8.700000e-02	4.349998e-02	-4.199175e-11	-4.350002e-05	4.349998e-05	-4.350002e-05
8.800000000000006e-02	8.800000e-02	4.399998e-02	-4.230979e-11	-4.400002e-05	4.399998e-05	-4.400002e-05
8.900000000000007e-02	8.900000e-02	4.449998e-02	-4.262504e-11	-4.450002e-05	4.449998e-05	-4.450002e-05
9.000000000000007e-02	9.000000e-02	4.499998e-02	-4.293754e-11	-4.500002e-05	4.499998e-05	-4.500002e-05
9.100000000000007e-02	9.100000e-02	4.549998e-02	-4.324730e-11	-4.550002e-05	4.549998e-05	-4.550002e-05
9.200000000000007e-02	9.200000e-02	4.599998e-02	-4.355436e-11	-4.600002e-05	4.599998e-05	-4.600002e-05
9.300000000000007e-02	9.300000e-02	4.649998e-02	-4.385874e-11	-4.650002e-05	4.649998e-05	-4.650002e-05
9.400000000000007e-02	9.400000e-02	4.699998e-02	-4.416047e-11	-4.700002e-05	4.699998e-05	-4.700002e-05
9.500000000000007e-02	9.500000e-02	4.749998e-02	-4.445956e-11	-4.750002e-05	4.749998e-05	-4.750002e-05
9.600000000000007e-02	9.600000e-02	4.799998e-02	-4.475605e-11	-4.800002e-05	4.799998e-05	-4.800002e-05
9.700000000000007e-02	9.700000e-02	4.849998e-02	-4.504995e-11	-4.850002e-05	4.849998e-05	-4.850002e-05
9.800000000000007e-02	9.800000e-02	4.899998e-02	-4.534130e-11	-4.900002e-05	4.899998e-05	-4.900002e-05
9.900000000000007e-02	9.900000e-02	4.949998e-02	-4.563011e-11	-4.950002e-05	4.949998e-05	-4.950002e-05
1.000000000000001e-01	1.000000e-01	4.999998e-02	-4.591641e-11	-5.000002e-05	4.999998e-05	-5.000002e-05
1.010000000000001e-01	1.010000e-01	5.049998e-02	-4.620023e-11	-5.050002e-05	5.049998e-05	-5.050002e-05
1.020000000000001e-01	1.020000e-01	5.099998e-02	-4.648158e-11	-5.100002e-05	5.099998e-05	-5.100002e-05
1.030000000000001e-01	1.030000e-01	5.149998e-02	-4.676049e-11	-5.150002e-05	5.149998e-05	-5.150002e-05
1.040000000000001e-01	1.040000e-01	5.199997e-02	-4.703698e-11	-5.200002e-05	5.199998e-05	-5.200002e-05
1.050000000000001e-01	1.050000e-01	5.249998e-02	-4.731108e-11	-5.250003e-05	5.249998e-05	-5.250003e-05
1.060000000000001e-01	1.060000e-01	5.299998e-02	-4.758280e-11	-5.300003e-05	5.299998e-05	-5.300003e-05
1.070000000000001e-01	1.070000e-01	5.349997e-02	-4.785217e-11	-5.350003e-05	5.349997e-05	-5.350003e-05
1.080000000000001e-01	1.080000e-01	5.399998e-02	-4.811921e-11	-5.400003e-05	5.399997e-05	-5.400003e-05
1.090000000000001e-01	1.090000e-01	5.449998e-02	-4.838394e-11	-5.450003e-05	5.449997e-05	-5.450003e-05
1.100000000000001e-01	1.100000e-01	5.499998e-02	-4.864639e-11	-5.500003e-05	5.499997e-05	-5.500003e-05
1.110000000000001e-01	1.110000e-01	5.549997e-02	-4.890657e-11	-5.550003e-05	5.549998e-05	-5.550003e-05
1.120000000000001e-01	1.120000e-01	5.599998e-02	-4.916450e-11	-5.600003e-05	5.599998e-05	-5.600003e-05
1.130000000000001e-01	1.130000e-01	5.649998e-02	-4.942021e-11	-5.650003e-05	5.649998e-05	-5.650003e-05
1.140000000000001e-01	1.140000e-01	5.699997e-02	-4.967372e-11	-5.700003e-05	5.699998e-05	-5.700003e-05
1.150000000000001e-01	1.150000e-01	5.749997e-02	-4.992505e-11	-5.750003e-05	5.749998e-05	-5.750003e-05
1.160000000000001e-01	1.160000e-01	5.799998e-02	-5.017422e-11	-5.800002e-05	5.799998e-05	-5.800002e-05
1.170000000000001e-01	1.170000e-01	5.849997e-02	-5.042124e-11	-5.850002e-05	5.849998e-05	-5.850002e-05
1.180000000000001e-01	1.180000e-01	5.899997e-02	-5.066614e-11	-5.900002e-05	5.899998e-05	-5.900002e-05
1.190000000000001e-01	1.190000e-01	5.949998e-02	-5.090894e-11	-5.950002e-05	5.949997e-05	-5.950002e-05
1.200000000000001e-01	1.200000e-01	5.999997e-02	-5.114965e-11	-6.000002e-05	5.999997e-05	-6.000002e-05
1.210000000000001e-01	1.210000e-01	6.049997e-02	-5.138831e-11	-6.050002e-05	6.049997e-05	-6.050002e-05
1.220000000000001e-01	1.220000e-01	6.099997e-02	-5.162492e-11	-6.100002e-05	6.099997e-05	-6.100002e-05
1.230000000000001e-01	1.230000e-01	6.149998e-02	-5.185950e-11	-6.150002e-05	6.149997e-05	-6.150002e-05
1.240000000000001e-01	1.240000e-01	6.199997e-02	-5.209207e-11	-6.200003e-05	6.199998e-05	-6.200003e-05
1.250000000000001e-01	1.250000e-01	6.249997e-02	-5.232266e-11	-6.250002e-05	6.249997e-05	-6.250002e-05
1.260000000000001e-01	1.260000e-01	6.299997e-02	-5.255128e-11	-6.300003e-05	6.299997e-05	-6.300003e-05
1.270000000000001e-01	1.270000e-01	6.349997e-02	-5.277795e-11	-6.350003e-05	6.349997e-05	-6.350003e-05
1.280000000000001e-01	1.280000e-01	6.399997e-02	-5.300269e-11	-6.400003e-05	6.399997e-05	-6.400003e-05
1.290000000000001e-01	1.290000e-01	6.449997e-02	-5.322551e-11	-6.450003e-05	6.449997e-05	-6.450003e-05
1.300000000000001e-01	1.300000e-01	6.499998e-02	-5.344643e-11	-6.500003e-05	6.499997e-05	-6.500003e-05
1.310000000000001e-01	1.310000e-01	6.549998e-02	-5.366548e-11	-6.550003e-05	6.549997e-05	-6.550003e-05
1.320000000000001e-01	1.320000e-01	6.599997e-02	-5.388266e-11	-6.600003e-05	6.599997e-05	-6.600003e-05
1.330000000000001e-01	1.330000e-01	6.649997e-02	-5.409800e-11	-6.650003e-05	6.649998e-05	-6.650003e-05
1.340000000000001e-01	1.340000e-01	6.699997e-02	-5.431151e-11	-6.700003e-05	6.699997e-05	-6.700003e-05
1.350000000000001e-01	1.350000e-01	6.749997e-02	-5.452321e-11	-6.750003e-05	6.749998e-05	-6.750003e-05
1.360000000000001e-01	1.360000e-01	6.799997e-02	-5.473312e-11	-6.800003e-05	6.799997e-05	-6.800003e-05
1.370000000000001e-01	1.370000e-01	6.849997e-02	-5.494125e-11	-6.850003e-05	6.849998e-05	-6.850003e-05
1.380000000000001e-01	1.380000e-01	6.899998e-02	-5.514762e-11	-6.900003e-05	6.899997e-05	-6.900003e-05
1.390000000000001e-01	1.390000e-01	6.949997e-02	-5.535224e-11	-6.950003e-05	6.949997e-05	-6.950003e-05
1.400000000000001e-01	1.400000e-01	6.999997e-02	-5.555514e-11	-7.000003e-05	6.999997e-05	-7.000003e-05
1.410000000000001e-01	1.410000e-01	7.049997e-02	-5.575633e-11	-7.050003e-05	7.049997e-05	-7.050003e-05
1.420000000000001e-01	1.420000e-01	7.099997e-02	-5.595582e-11	-7.100003e-05	7.099997e-05	-7.100003e-05
1.430000000000001e-01	1.430000e-01	7.149997e-02	-5.615363e-11	-7.150003e-05	7.149997e-05	-7.150003e-05
1.440000000000001e-01	1.440000e-01	7.199997e-02	-5.634978e-11	-7.200003e-05	7.199997e-05	-7.200003e-05
1.450000000000001e-01	1.450000e-01	7.249997e-02	-5.654427e-11	-7.250003e-05	7.249997e-05	-7.250003e-05
1.460000000000001e-01	1.460000e-01	7.299997e-02	-5.673714e-11	-7.300003e-05	7.299997e-05	-7.300003e-05
1.470000000000001e-01	1.470000e-01	7.349997e-02	-5.692838e-11	-7.350003e-05	7.349997e-05	-7.350003e-05
1.480000000000001e-01	1.480000e-01	7.399997e-02	-5.711802e-11	-7.400003e-05	7.399997e-05	-7.400003e-05
1.490000000000001e-01	1.490000e-01	7.449997e-02	-5.730607e-11	-7.450003e-05	7.449997e-05	-7.450003e-05
1.500000000000001e-01	1.500000e-01	7.499997e-02	-5.749255e-11	-7.500003e-05	7.499997e-05	-7.500003e-05
1.510000000000001e-01	1.510000e-01	7.549997e-02	-5.767747e-11	-7.550003e-05	7.549997e-05	-7.550003e-05
1.520000000000001e-01	1.520000e-01	7.599997e-02	-5.786085e-11	-7.600003e-05	7.599997e-05	-7.600003e-05
1.530000000000001e-01	1.530000e-01	7.649997e-02	-5.804269e-11	-7.650003e-05	7.649997e-05	-7.650003e-05
1.540000000000001e-01	1.540000e-01	7.699997e-02	-5.822302e-11	-7.700003e-05	7.699997e-05	-7.700003e-05
1.550000000000001e-01	1.550000e-01	7.749997e-02	-5.840185e-11	-7.750003e-05	7.749997e-05	-7.750003e-05
1.560000000000001e-01	1.560000e-01	7.799997e-02	-5.857919e-11	-7.800003e-05	7.799997e-05	-7.800003e-05
1.570000000000001e-01	1.570000e-01	7.849997e-02	-5.875505e-11	-7.850003e-05	7.849997e-05	-7.850003e-05
1.580000000000001e-01	1.580000e-01	7.899997e-02	-5.892946e-11	-7.900003e-05	7.899997e-05	-7.900003e-05
1.590000000000001e-01	1.590000e-01	7.949997e-02	-5.910242e-11	-7.950003e-05	7.949997e-05	-7.950003e-05
1.600000000000001e-01	1.600000e-01	7.999997e-02	-5.927394e-11	-8.000003e-05	7.999997e-05	-8.000003e-05
1.610000000000001e-01	1.610000e-01	8.049997e-02	-5.944404e-11	-8.050003e-05	8.049997e-05	-8.050003e-05
1.620000000000001e-01	1.620000e-01	8.099997e-02	-5.961274e-11	-8.100003e-05	8.099997e-05	-8.100003e-05
1.630000000000001e-01	1.630000e-01	8.149997e-02	-5.978004e-11	-8.150003e-05	8.149997e-05	-8.150003e-05
1.640000000000001e-01	1.640000e-01	8.199997e-02	-5.994596e-11	-8.200003e-05	8.199997e-05	-8.200003e-05
1.650000000000001e-01	1.650000e-01	8.249997e-02	-6.011052e-11	-8.250003e-05	8.249997e-05	-8.250003e-05
1.660000000000001e-01	1.660000e-01	8.299997e-02	-6.027372e-11	-8.300003e-05	8.299997e-05	-8.300003e-05
1.670000000000001e-01	1.670000e-01	8.349997e-02	-6.043558e-11	-8.350003e-05	8.349997e-05	-8.350003e-05
1.680000000000001e-01	1.680000e-01	8.399997e-02	-6.059610e-11	-8.400003e-05	8.399997e-05	-8.400003e-05
1.690000000000001e-01	1.690000e-01	8.449997e-02	-6.075531e-11	-8.450003e-05	8.449997e-05	-8.450003e-05
1.700000000000001e-01	1.700000e-01	8.499997e-02	-6.091321e-11	-8.500003e-05	8.499997e-05	-8.500003e-05
1.710000000000001e-01	1.710000e-01	8.549997e-02	-6.106982e-11	-8.550003e-05	8.549997e-05	-8.550003e-05
1.720000000000001e-01	1.720000e-01	8.599997e-02	-6.122515e-11	-8.600003e-05	8.599997e-05	-8.600003e-05
1.730000000000001e-01	1.730000e-01	8.649997e-02	-6.137921e-11	-8.650003e-05	8.649997e-05	-8.650003e-05
1.740000000000001e-01	1.740000e-01	8.699997e-02	-6.153202e-11	-8.700003e-05	8.699997e-05	-8.700003e-05
1.750000000000001e-01	1.750000e-01	8.749997e-02	-6.168357e-11	-8.750003e-05	8.749997e-05	-8.750003e-05
1.760000000000001e-01	1.760000e-01	8.799997e-02	-6.183389e-11	-8.800003e-05	8.799997e-05	-8.800003e-05
1.770000000000001e-01	1.770000e-01	8.849997e-02	-6.198299e-11	-8.850003e-05	8.849997e-05	-8.850003e-05
1.780000000000001e-01	1.780000e-01	8.899997e-02	-6.213087e-11	-8.900003e-05	8.899997e-05	-8.900003e-05
1.790000000000001e-01	1.790000e-01	8.949997e-02	-6.227756e-11	-8.950003e-05	8.949997e-05	-8.950003e-05
1.800000000000001e-01	1.800000e-01	8.999997e-02	-6.242305e-11	-9.000003e-05	8.999997e-05	-9.000003e-05
1.810000000000001e-01	1.810000e-01	9.049997e-02	-6.256737e-11	-9.050003e-05	9.049997e-05	-9.050003e-05
1.820000000000001e-01	1.820000e-01	9.099997e-02	-6.271052e-11	-9.100003e-05	9.099997e-05	-9.100003e-05
1.830000000000001e-01	1.830000e-01	9.149997e-02	-6.285251e-11	-9.150003e-05	9.149997e-05	-9.150003e-05
1.840000000000001e-01	1.840000e-01	9.199997e-02	-6.299337e-11	-9.200003e-05	9.199997e-05	-9.200003e-05
1.850000000000001e-01	1.850000e-01	9.249997e-02	-6.313308e-11	-9.250003e-05	9.249997e-05	-9.250003e-05
1.860000000000001e-01	1.860000e-01	9.299996e-02	-6.327167e-11	-9.300003e-05	9.299997e-05	-9.300003e-05
1.870000000000001e-01	1.870000e-01	9.349997e-02	-6.340915e-11	-9.350004e-05	9.349997e-05	-9.350004e-05
1.880000000000001e-01	1.880000e-01	9.399997e-02	-6.354552e-11	-9.400003e-05	9.399997e-05	-9.400003e-05
1.890000000000001e-01	1.890000e-01	9.449997e-02	-6.368080e-11	-9.450003e-05	9.449997e-05	-9.450003e-05
1.900000000000001e-01	1.900000e-01	9.499997e-02	-6.381499e-11	-9.500003e-05	9.499997e-05	-9.500003e-05
1.910000000000001e-01	1.910000e-01	9.549997e-02	-6.394811e-11	-9.550003e-05	9.549997e-05	-9.550003e-05
1.920000000000001e-01	1.920000e-01	9.599997e-02	-6.408017e-11	-9.600003e-05	9.599997e-05	-9.600003e-05
