v1	V(in)	V(out)	I(D1)	I(R1)	I(V1)
0.000000000000000e+00	0.000000e+00	0.000000e+00	0.000000e+00	0.000000e+00	0.000000e+00
1.000000000000000e-03	1.000000e-03	9.999987e-04	-1.380166e-12	-1.392582e-12	-1.380166e-12
2.000000000000000e-03	2.000000e-03	1.999997e-03	-2.735489e-12	-2.735489e-12	-2.735489e-12
3.000000000000000e-03	3.000000e-03	2.999996e-03	-4.066428e-12	-4.066428e-12	-4.066428e-12
4.000000000000000e-03	4.000000e-03	3.999995e-03	-5.373435e-12	-5.373435e-12	-5.373435e-12
5.000000000000000e-03	5.000000e-03	4.999993e-03	-6.656952e-12	-6.656952e-12	-6.656952e-12
6.000000000000000e-03	6.000000e-03	5.999992e-03	-7.917413e-12	-7.917413e-12	-7.917413e-12
7.000000000000000e-03	7.000000e-03	6.999991e-03	-9.155244e-12	-9.155244e-12	-9.155244e-12
8.000000000000000e-03	8.000000e-03	7.999989e-03	-1.037087e-11	-1.037087e-11	-1.037087e-11
9.000000000000001e-03	9.000000e-03	8.999988e-03	-1.156469e-11	-1.156469e-11	-1.156469e-11
1.000000000000000e-02	1.000000e-02	9.999988e-03	-1.273711e-11	-1.273711e-11	-1.273711e-11
1.100000000000000e-02	1.100000e-02	1.099999e-02	-1.388853e-11	-1.388853e-11	-1.388853e-11
1.200000000000000e-02	1.200000e-02	1.199999e-02	-1.501934e-11	-1.501934e-11	-1.501934e-11
1.300000000000000e-02	1.300000e-02	1.299998e-02	-1.612992e-11	-1.612992e-11	-1.612992e-11
1.400000000000001e-02	1.400000e-02	1.399998e-02	-1.722064e-11	-1.722064e-11	-1.722064e-11
1.500000000000001e-02	1.500000e-02	1.499998e-02	-1.829187e-11	-1.829187e-11	-1.829187e-11
1.600000000000001e-02	1.600000e-02	1.599998e-02	-1.934398e-11	-1.934398e-11	-1.934398e-11
1.700000000000001e-02	1.700000e-02	1.699998e-02	-2.037731e-11	-2.037731e-11	-2.037731e-11
1.800000000000001e-02	1.800000e-02	1.799998e-02	-2.139220e-11	-2.139220e-11	-2.139220e-11
1.900000000000001e-02	1.900000e-02	1.899998e-02	-2.238901e-11	-2.238901e-11	-2.238901e-11
2.000000000000001e-02	2.000000e-02	1.999998e-02	-2.336807e-11	-2.336807e-11	-2.336807e-11
2.100000000000001e-02	2.100000e-02	2.099998e-02	-2.432971e-11	-2.432971e-11	-2.432971e-11
2.200000000000001e-02	2.200000e-02	2.199997e-02	-2.527424e-11	-2.527424e-11	-2.527424e-11
2.300000000000001e-02	2.300000e-02	2.299997e-02	-2.620199e-11	-2.620199e-11	-2.620199e-11
2.400000000000001e-02	2.400000e-02	2.399997e-02	-2.711326e-11	-2.711326e-11	-2.711326e-11
2.500000000000002e-02	2.500000e-02	2.499997e-02	-2.800836e-11	-2.800836e-11	-2.800836e-11
2.600000000000002e-02	2.600000e-02	2.599997e-02	-2.888759e-11	-2.888759e-11	-2.888759e-11
2.700000000000002e-02	2.700000e-02	2.699997e-02	-2.975125e-11	-2.975125e-11	-2.975125e-11
2.800000000000002e-02	2.800000e-02	2.799997e-02	-3.059961e-11	-3.059961e-11	-3.059961e-11
2.900000000000002e-02	2.900000e-02	2.899997e-02	-3.143297e-11	-3.143297e-11	-3.143297e-11
3.000000000000002e-02	3.000000e-02	2.999997e-02	-3.225160e-11	-3.225160e-11	-3.225160e-11
3.100000000000002e-02	3.100000e-02	3.099997e-02	-3.305577e-11	-3.305577e-11	-3.305577e-11
3.200000000000002e-02	3.200000e-02	3.199997e-02	-3.384576e-11	-3.384576e-11	-3.384576e-11
3.300000000000002e-02	3.300000e-02	3.299997e-02	-3.462182e-11	-3.462182e-11	-3.462182e-11
3.400000000000002e-02	3.400000e-02	3.399996e-02	-3.538421e-11	-3.538421e-11	-3.538421e-11
3.500000000000002e-02	3.500000e-02	3.499996e-02	-3.613319e-11	-3.613319e-11	-3.613319e-11
3.600000000000003e-02	3.600000e-02	3.599996e-02	-3.686900e-11	-3.686900e-11	-3.686900e-11
3.700000000000003e-02	3.700000e-02	3.699996e-02	-3.759188e-11	-3.759188e-11	-3.759188e-11
3.800000000000003e-02	3.800000e-02	3.799996e-02	-3.830208e-11	-3.830208e-11	-3.830208e-11
3.900000000000003e-02	3.900000e-02	3.899996e-02	-3.899984e-11	-3.899984e-11	-3.899984e-11
4.000000000000003e-02	4.000000e-02	3.999996e-02	-3.968537e-11	-3.968537e-11	-3.968537e-11
4.100000000000003e-02	4.100000e-02	4.099996e-02	-4.035891e-11	-4.035891e-11	-4.035891e-11
4.200000000000003e-02	4.200000e-02	4.199996e-02	-4.102068e-11	-4.102068e-11	-4.102068e-11
4.300000000000003e-02	4.300000e-02	4.299996e-02	-4.167090e-11	-4.167090e-11	-4.167090e-11
4.400000000000003e-02	4.400000e-02	4.399996e-02	-4.230978e-11	-4.230978e-11	-4.230978e-11
4.500000000000003e-02	4.500000e-02	4.499996e-02	-4.293753e-11	-4.293753e-11	-4.293753e-11
4.600000000000003e-02	4.600000e-02	4.599996e-02	-4.355435e-11	-4.355435e-11	-4.355435e-11
4.700000000000003e-02	4.700000e-02	4.699996e-02	-4.416045e-11	-4.416045e-11	-4.416045e-11
4.800000000000004e-02	4.800000e-02	4.799996e-02	-4.475603e-11	-4.475603e-11	-4.475603e-11
4.900000000000004e-02	4.900000e-02	4.899995e-02	-4.534129e-11	-4.534129e-11	-4.534129e-11
5.000000000000004e-02	5.000000e-02	4.999995e-02	-4.591640e-11	-4.591640e-11	-4.591640e-11
5.100000000000004e-02	5.100000e-02	5.099995e-02	-4.648157e-11	-4.648157e-11	-4.648157e-11
5.200000000000004e-02	5.200000e-02	5.199995e-02	-4.703697e-11	-4.703697e-11	-4.703697e-11
5.300000000000004e-02	5.300000e-02	5.299995e-02	-4.758279e-11	-4.758279e-11	-4.758279e-11
5.400000000000004e-02	5.400000e-02	5.399995e-02	-4.811920e-11	-4.811920e-11	-4.811920e-11
5.500000000000004e-02	5.500000e-02	5.499995e-02	-4.864638e-11	-4.864638e-11	-4.864638e-11
5.600000000000004e-02	5.600000e-02	5.599995e-02	-4.916449e-11	-4.916449e-11	-4.916449e-11
5.700000000000004e-02	5.700000e-02	5.699995e-02	-4.967371e-11	-4.967371e-11	-4.967371e-11
5.800000000000004e-02	5.800000e-02	5.799995e-02	-5.017421e-11	-5.017421e-11	-5.017421e-11
5.900000000000005e-02	5.900000e-02	5.899995e-02	-5.066613e-11	-5.066613e-11	-5.066613e-11
6.000000000000005e-02	6.000000e-02	5.999995e-02	-5.114964e-11	-5.114964e-11	-5.114964e-11
6.100000000000005e-02	6.100000e-02	6.099995e-02	-5.162490e-11	-5.162490e-11	-5.162490e-11
6.200000000000005e-02	6.200000e-02	6.199995e-02	-5.209206e-11	-5.209206e-11	-5.209206e-11
6.300000000000004e-02	6.300000e-02	6.299995e-02	-5.255127e-11	-5.255127e-11	-5.255127e-11
6.400000000000004e-02	6.400000e-02	6.399994e-02	-5.300268e-11	-5.300268e-11	-5.300268e-11
6.500000000000004e-02	6.500000e-02	6.499995e-02	-5.344642e-11	-5.344642e-11	-5.344642e-11
6.600000000000004e-02	6.600000e-02	6.599995e-02	-5.388265e-11	-5.388265e-11	-5.388265e-11
6.700000000000005e-02	6.700000e-02	6.699994e-02	-5.431150e-11	-5.431150e-11	-5.431150e-11
6.800000000000005e-02	6.800000e-02	6.799994e-02	-5.473311e-11	-5.473311e-11	-5.473311e-11
6.900000000000005e-02	6.900000e-02	6.899995e-02	-5.514761e-11	-5.514761e-11	-5.514761e-11
7.000000000000005e-02	7.000000e-02	6.999995e-02	-5.555513e-11	-5.555513e-11	-5.555513e-11
7.100000000000005e-02	7.100000e-02	7.099994e-02	-5.595581e-11	-5.595581e-11	-5.595581e-11
7.200000000000005e-02	7.200000e-02	7.199994e-02	-5.634977e-11	-5.634977e-11	-5.634977e-11
7.300000000000005e-02	7.300000e-02	7.299995e-02	-5.673713e-11	-5.673713e-11	-5.673713e-11
7.400000000000005e-02	7.400000e-02	7.399994e-02	-5.711801e-11	-5.711801e-11	-5.711801e-11
7.500000000000005e-02	7.500000e-02	7.499994e-02	-5.749254e-11	-5.749254e-11	-5.749254e-11
7.600000000000005e-02	7.600000e-02	7.599995e-02	-5.786084e-11	-5.786084e-11	-5.786084e-11
7.700000000000005e-02	7.700000e-02	7.699994e-02	-5.822301e-11	-5.822301e-11	-5.822301e-11
7.800000000000006e-02	7.800000e-02	7.799994e-02	-5.857918e-11	-5.857918e-11	-5.857918e-11
7.900000000000006e-02	7.900000e-02	7.899994e-02	-5.892944e-11	-5.892944e-11	-5.892944e-11
8.000000000000006e-02	8.000000e-02	7.999994e-02	-5.927393e-11	-5.927393e-11	-5.927393e-11
8.100000000000006e-02	8.100000e-02	8.099994e-02	-5.961273e-11	-5.961273e-11	-5.961273e-11
8.200000000000006e-02	8.200000e-02	8.199994e-02	-5.994596e-11	-5.994596e-11	-5.994596e-11
8.300000000000006e-02	8.300000e-02	8.299994e-02	-6.027371e-11	-6.027371e-11	-6.027371e-11
8.400000000000006e-02	8.400000e-02	8.399994e-02	-6.059609e-11	-6.059609e-11	-6.059609e-11
8.500000000000006e-02	8.500000e-02	8.499994e-02	-6.091321e-11	-6.091321e-11	-6.091321e-11
8.600000000000006e-02	8.600000e-02	8.599994e-02	-6.122514e-11	-6.122514e-11	-6.122514e-11
8.700000000000006e-02	8.700000e-02	8.699994e-02	-6.153200e-11	-6.153200e-11	-6.153200e-11
8.800000000000006e-02	8.800000e-02	8.799994e-02	-6.183388e-11	-6.183388e-11	-6.183388e-11
8.900000000000007e-02	8.900000e-02	8.899993e-02	-6.213086e-11	-6.213086e-11	-6.213086e-11
9.000000000000007e-02	9.000000e-02	8.999994e-02	-6.242305e-11	-6.242305e-11	-6.242305e-11
9.100000000000007e-02	9.100000e-02	9.099994e-02	-6.271051e-11	-6.271051e-11	-6.271051e-11
9.200000000000007e-02	9.200000e-02	9.199994e-02	-6.299335e-11	-6.299335e-11	-6.299335e-11
9.300000000000007e-02	9.300000e-02	9.299994e-02	-6.327166e-11	-6.327166e-11	-6.327166e-11
9.400000000000007e-02	9.400000e-02	9.399994e-02	-6.354551e-11	-6.354551e-11	-6.354551e-11
9.500000000000007e-02	9.500000e-02	9.499994e-02	-6.381498e-11	-6.381498e-11	-6.381498e-11
9.600000000000007e-02	9.600000e-02	9.599993e-02	-6.408016e-11	-6.408016e-11	-6.408016e-11
9.700000000000007e-02	9.700000e-02	9.699994e-02	-6.434114e-11	-6.434114e-11	-6.434114e-11
9.800000000000007e-02	9.800000e-02	9.799994e-02	-6.459797e-11	-6.459797e-11	-6.459797e-11
9.900000000000007e-02	9.900000e-02	9.899993e-02	-6.485074e-11	-6.485074e-11	-6.485074e-11
1.000000000000001e-01	1.000000e-01	9.999993e-02	-6.509953e-11	-6.509953e-11	-6.509953e-11
1.010000000000001e-01	1.010000e-01	1.009999e-01	-6.534441e-11	-6.534441e-11	-6.534441e-11
1.020000000000001e-01	1.020000e-01	1.019999e-01	-6.558545e-11	-6.558545e-11	-6.558545e-11
1.030000000000001e-01	1.030000e-01	1.029999e-01	-6.582274e-11	-6.582274e-11	-6.582274e-11
1.040000000000001e-01	1.040000e-01	1.039999e-01	-6.605631e-11	-6.605631e-11	-6.605631e-11
1.050000000000001e-01	1.050000e-01	1.049999e-01	-6.628626e-11	-6.628626e-11	-6.628626e-11
1.060000000000001e-01	1.060000e-01	1.059999e-01	-6.651265e-11	-6.651265e-11	-6.651265e-11
1.070000000000001e-01	1.070000e-01	1.069999e-01	-6.673555e-11	-6.673555e-11	-6.673555e-11
1.080000000000001e-01	1.080000e-01	1.079999e-01	-6.695501e-11	-6.695501e-11	-6.695501e-11
1.090000000000001e-01	1.090000e-01	1.089999e-01	-6.717110e-11	-6.717110e-11	-6.717110e-11
1.100000000000001e-01	1.100000e-01	1.099999e-01	-6.738389e-11	-6.738389e-11	-6.738389e-11
1.110000000000001e-01	1.110000e-01	1.109999e-01	-6.759344e-11	-6.759344e-11	-6.759344e-11
1.120000000000001e-01	1.120000e-01	1.119999e-01	-6.779979e-11	-6.779979e-11	-6.779979e-11
1.130000000000001e-01	1.130000e-01	1.129999e-01	-6.800303e-11	-6.800303e-11	-6.800303e-11
1.140000000000001e-01	1.140000e-01	1.139999e-01	-6.820320e-11	-6.820320e-11	-6.820320e-11
1.150000000000001e-01	1.150000e-01	1.149999e-01	-6.840035e-11	-6.840035e-11	-6.840035e-11
1.160000000000001e-01	1.160000e-01	1.159999e-01	-6.859455e-11	-6.859455e-11	-6.859455e-11
1.170000000000001e-01	1.170000e-01	1.169999e-01	-6.878586e-11	-6.878586e-11	-6.878586e-11
1.180000000000001e-01	1.180000e-01	1.179999e-01	-6.897431e-11	-6.897431e-11	-6.897431e-11
1.190000000000001e-01	1.190000e-01	1.189999e-01	-6.915997e-11	-6.915997e-11	-6.915997e-11
1.200000000000001e-01	1.200000e-01	1.199999e-01	-6.934288e-11	-6.934288e-11	-6.934288e-11
1.210000000000001e-01	1.210000e-01	1.209999e-01	-6.952310e-11	-6.952310e-11	-6.952310e-11
1.220000000000001e-01	1.220000e-01	1.219999e-01	-6.970068e-11	-6.970068e-11	-6.970068e-11
1.230000000000001e-01	1.230000e-01	1.229999e-01	-6.987567e-11	-6.987567e-11	-6.987567e-11
1.240000000000001e-01	1.240000e-01	1.239999e-01	-7.004811e-11	-7.004811e-11	-7.004811e-11
1.250000000000001e-01	1.250000e-01	1.249999e-01	-7.021805e-11	-7.021805e-11	-7.021805e-11
1.260000000000001e-01	1.260000e-01	1.259999e-01	-7.038554e-11	-7.038554e-11	-7.038554e-11
1.270000000000001e-01	1.270000e-01	1.269999e-01	-7.055062e-11	-7.055062e-11	-7.055062e-11
1.280000000000001e-01	1.280000e-01	1.279999e-01	-7.071334e-11	-7.071334e-11	-7.071334e-11
1.290000000000001e-01	1.290000e-01	1.289999e-01	-7.087374e-11	-7.087374e-11	-7.087374e-11
1.300000000000001e-01	1.300000e-01	1.299999e-01	-7.103187e-11	-7.103187e-11	-7.103187e-11
1.310000000000001e-01	1.310000e-01	1.309999e-01	-7.118775e-11	-7.118775e-11	-7.118775e-11
1.320000000000001e-01	1.320000e-01	1.319999e-01	-7.134145e-11	-7.134145e-11	-7.134145e-11
1.330000000000001e-01	1.330000e-01	1.329999e-01	-7.149299e-11	-7.149299e-11	-7.149299e-11
1.340000000000001e-01	1.340000e-01	1.339999e-01	-7.164242e-11	-7.164242e-11	-7.164242e-11
1.350000000000001e-01	1.350000e-01	1.349999e-01	-7.178978e-11	-7.178978e-11	-7.178978e-11
1.360000000000001e-01	1.360000e-01	1.359999e-01	-7.193510e-11	-7.193510e-11	-7.193510e-11
1.370000000000001e-01	1.370000e-01	1.369999e-01	-7.207841e-11	-7.207841e-11	-7.207841e-11
1.380000000000001e-01	1.380000e-01	1.379999e-01	-7.221977e-11	-7.221977e-11	-7.221977e-11
1.390000000000001e-01	1.390000e-01	1.389999e-01	-7.235921e-11	-7.235921e-11	-7.235921e-11
1.400000000000001e-01	1.400000e-01	1.399999e-01	-7.249675e-11	-7.249675e-11	-7.249675e-11
1.410000000000001e-01	1.410000e-01	1.409999e-01	-7.263244e-11	-7.263244e-11	-7.263244e-11
1.420000000000001e-01	1.420000e-01	1.419999e-01	-7.276631e-11	-7.276631e-11	-7.276631e-11
1.430000000000001e-01	1.430000e-01	1.429999e-01	-7.289840e-11	-7.289840e-11	-7.289840e-11
1.440000000000001e-01	1.440000e-01	1.439999e-01	-7.302872e-11	-7.302872e-11	-7.302872e-11
1.450000000000001e-01	1.450000e-01	1.449999e-01	-7.315733e-11	-7.315733e-11	-7.315733e-11
1.460000000000001e-01	1.460000e-01	1.459999e-01	-7.328424e-11	-7.328424e-11	-7.328424e-11
1.470000000000001e-01	1.470000e-01	1.469999e-01	-7.340950e-11	-7.340950e-11	-7.340950e-11
1.480000000000001e-01	1.480000e-01	1.479999e-01	-7.353312e-11	-7.353312e-11	-7.353312e-11
1.490000000000001e-01	1.490000e-01	1.489999e-01	-7.365515e-11	-7.365515e-11	-7.365515e-11
1.500000000000001e-01	1.500000e-01	1.499999e-01	-7.377562e-11	-7.377562e-11	-7.377562e-11
1.510000000000001e-01	1.510000e-01	1.509999e-01	-7.389454e-11	-7.389454e-11	-7.389454e-11
1.520000000000001e-01	1.520000e-01	1.519999e-01	-7.401194e-11	-7.401194e-11	-7.401194e-11
1.530000000000001e-01	1.530000e-01	1.529999e-01	-7.412786e-11	-7.412786e-11	-7.412786e-11
1.540000000000001e-01	1.540000e-01	1.539999e-01	-7.424233e-11	-7.424233e-11	-7.424233e-11
1.550000000000001e-01	1.550000e-01	1.549999e-01	-7.435537e-11	-7.435537e-11	-7.435537e-11
1.560000000000001e-01	1.560000e-01	1.559999e-01	-7.446701e-11	-7.446701e-11	-7.446701e-11
1.570000000000001e-01	1.570000e-01	1.569999e-01	-7.457726e-11	-7.457726e-11	-7.457726e-11
1.580000000000001e-01	1.580000e-01	1.579999e-01	-7.468617e-11	-7.468617e-11	-7.468617e-11
1.590000000000001e-01	1.590000e-01	1.589999e-01	-7.479374e-11	-7.479374e-11	-7.479374e-11
1.600000000000001e-01	1.600000e-01	1.599999e-01	-7.490002e-11	-7.490002e-11	-7.490002e-11
1.610000000000001e-01	1.610000e-01	1.609999e-01	-7.500501e-11	-7.500501e-11	-7.500501e-11
1.620000000000001e-01	1.620000e-01	1.619999e-01	-7.510875e-11	-7.510875e-11	-7.510875e-11
1.630000000000001e-01	1.630000e-01	1.629999e-01	-7.521125e-11	-7.521125e-11	-7.521125e-11
1.640000000000001e-01	1.640000e-01	1.639999e-01	-7.531255e-11	-7.531255e-11	-7.531255e-11
1.650000000000001e-01	1.650000e-01	1.649999e-01	-7.541266e-11	-7.541266e-11	-7.541266e-11
1.660000000000001e-01	1.660000e-01	1.659999e-01	-7.551160e-11	-7.551160e-11	-7.551160e-11
1.670000000000001e-01	1.670000e-01	1.669999e-01	-7.560939e-11	-7.560939e-11	-7.560939e-11
1.680000000000001e-01	1.680000e-01	1.679999e-01	-7.570607e-11	-7.570607e-11	-7.570607e-11
1.690000000000001e-01	1.690000e-01	1.689999e-01	-7.580164e-11	-7.580164e-11	-7.580164e-11
1.700000000000001e-01	1.700000e-01	1.699999e-01	-7.589613e-11	-7.589613e-11	-7.589613e-11
1.710000000000001e-01	1.710000e-01	1.709999e-01	-7.598955e-11	-7.598955e-11	-7.598955e-11
1.720000000000001e-01	1.720000e-01	1.719999e-01	-7.608194e-11	-7.608194e-11	-7.608194e-11
1.730000000000001e-01	1.730000e-01	1.729999e-01	-7.617330e-11	-7.617330e-11	-7.617330e-11
1.740000000000001e-01	1.740000e-01	1.739999e-01	-7.626365e-11	-7.626365e-11	-7.626365e-11
1.750000000000001e-01	1.750000e-01	1.749999e-01	-7.635301e-11	-7.635301e-11	-7.635301e-11
1.760000000000001e-01	1.760000e-01	1.759999e-01	-7.644141e-11	-7.644141e-11	-7.644141e-11
1.770000000000001e-01	1.770000e-01	1.769999e-01	-7.652885e-11	-7.652885e-11	-7.652885e-11
1.780000000000001e-01	1.780000e-01	1.779999e-01	-7.661537e-11	-7.661537e-11	-7.661537e-11
1.790000000000001e-01	1.790000e-01	1.789999e-01	-7.670096e-11	-7.670096e-11	-7.670096e-11
1.800000000000001e-01	1.800000e-01	1.799999e-01	-7.678565e-11	-7.678565e-11	-7.678565e-11
1.810000000000001e-01	1.810000e-01	1.809999e-01	-7.686947e-11	-7.686947e-11	-7.686947e-11
1.820000000000001e-01	1.820000e-01	1.819999e-01	-7.695241e-11	-7.695241e-11	-7.695241e-11
1.830000000000001e-01	1.830000e-01	1.829999e-01	-7.703450e-11	-7.703450e-11	-7.703450e-11
1.840000000000001e-01	1.840000e-01	1.839999e-01	-7.711576e-11	-7.711576e-11	-7.711576e-11
1.850000000000001e-01	1.850000e-01	1.849999e-01	-7.719620e-11	-7.719620e-11	-7.719620e-11
1.860000000000001e-01	1.860000e-01	1.859999e-01	-7.727583e-11	-7.727583e-11	-7.727583e-11
1.870000000000001e-01	1.870000e-01	1.869999e-01	-7.735467e-11	-7.735467e-11	-7.735467e-11
1.880000000000001e-01	1.880000e-01	1.879999e-01	-7.743273e-11	-7.743273e-11	-7.743273e-11
1.890000000000001e-01	1.890000e-01	1.889999e-01	-7.751003e-11	-7.751003e-11	-7.751003e-11
1.900000000000001e-01	1.900000e-01	1.899999e-01	-7.758659e-11	-7.758659e-11	-7.758659e-11
1.910000000000001e-01	1.910000e-01	1.909999e-01	-7.766240e-11	-7.766240e-11	-7.766240e-11
1.920000000000001e-01	1.920000e-01	1.919999e-01	-7.773750e-11	-7.773750e-11	-7.773750e-11
1.930000000000001e-01	1.930000e-01	1.929999e-01	-7.781190e-11	-7.781190e-11	-7.781190e-11
1.940000000000001e-01	1.940000e-01	1.939999e-01	-7.788559e-11	-7.788559e-11	-7.788559e-11
1.950000000000001e-01	1.950000e-01	1.949999e-01	-7.795860e-11	-7.795860e-11	-7.795860e-11
1.960000000000001e-01	1.960000e-01	1.959999e-01	-7.803094e-11	-7.803094e-11	-7.803094e-11
1.970000000000001e-01	1.970000e-01	1.969999e-01	-7.810262e-11	-7.810262e-11	-7.810262e-11
1.980000000000001e-01	1.980000e-01	1.979999e-01	-7.817366e-11	-7.817366e-11	-7.817366e-11
1.990000000000001e-01	1.990000e-01	1.989999e-01	-7.824406e-11	-7.824406e-11	-7.824406e-11
2.000000000000001e-01	2.000000e-01	1.999999e-01	-7.831385e-11	-7.831385e-11	-7.831385e-11
2.010000000000002e-01	2.010000e-01	2.009999e-01	-7.838302e-11	-7.838302e-11	-7.838302e-11
2.020000000000002e-01	2.020000e-01	2.019999e-01	-7.845159e-11	-7.845159e-11	-7.845159e-11
2.030000000000002e-01	2.030000e-01	2.029999e-01	-7.851957e-11	-7.851957e-11	-7.851957e-11
2.040000000000002e-01	2.040000e-01	2.039999e-01	-7.858696e-11	-7.858696e-11	-7.858696e-11
2.050000000000002e-01	2.050000e-01	2.049999e-01	-7.865380e-11	-7.865380e-11	-7.865380e-11
2.060000000000002e-01	2.060000e-01	2.059999e-01	-7.872007e-11	-7.872007e-11	-7.872007e-11
2.070000000000002e-01	2.070000e-01	2.069999e-01	-7.878580e-11	-7.878580e-11	-7.878580e-11
2.080000000000002e-01	2.080000e-01	2.079999e-01	-7.885099e-11	-7.885099e-11	-7.885099e-11
2.090000000000002e-01	2.090000e-01	2.089999e-01	-7.891565e-11	-7.891565e-11	-7.891565e-11
2.100000000000002e-01	2.100000e-01	2.099999e-01	-7.897979e-11	-7.897979e-11	-7.897979e-11
2.110000000000002e-01	2.110000e-01	2.109999e-01	-7.904343e-11	-7.904343e-11	-7.904343e-11
2.120000000000002e-01	2.120000e-01	2.119999e-01	-7.910657e-11	-7.910657e-11	-7.910657e-11
2.130000000000002e-01	2.130000e-01	2.129999e-01	-7.916921e-11	-7.916921e-11	-7.916921e-11
2.140000000000002e-01	2.140000e-01	2.139999e-01	-7.923137e-11	-7.923137e-11	-7.923137e-11
2.150000000000002e-01	2.150000e-01	2.149999e-01	-7.929306e-11	-7.929306e-11	-7.929306e-11
2.160000000000002e-01	2.160000e-01	2.159999e-01	-7.935428e-11	-7.935428e-11	-7.935428e-11
2.170000000000002e-01	2.170000e-01	2.169999e-01	-7.941505e-11	-7.941505e-11	-7.941505e-11
2.180000000000002e-01	2.180000e-01	2.179999e-01	-7.947537e-11	-7.947537e-11	-7.947537e-11
2.190000000000002e-01	2.190000e-01	2.189999e-01	-7.953525e-11	-7.953525e-11	-7.953525e-11
2.200000000000002e-01	2.200000e-01	2.199999e-01	-7.959470e-11	-7.959470e-11	-7.959470e-11
